time;V(/OUT_N);V(/OUT_P);user1;
0.100007;0.971378;0.964513;-0.00686476;
0.100017;0.975888;0.960003;-0.0158848;
0.100027;0.980367;0.955525;-0.0248421;
0.100037;0.984797;0.951096;-0.0337013;
0.100047;0.989161;0.946734;-0.0424272;
0.100057;0.993441;0.942456;-0.0509854;
0.100067;0.99762;0.938278;-0.059342;
0.100077;1.00168;0.934218;-0.0674642;
0.100087;1.00561;0.930292;-0.0753198;
0.100097;1.00939;0.926514;-0.0828777;
0.100107;1.01301;0.9229;-0.0901083;
0.100117;1.01645;0.919464;-0.0969829;
0.100127;1.01969;0.91622;-0.103475;
0.100137;1.02274;0.913179;-0.109558;
0.100147;1.02556;0.910356;-0.115208;
0.100157;1.02816;0.907759;-0.120404;
0.100167;1.03052;0.9054;-0.125124;
0.100177;1.03264;0.903288;-0.129351;
0.100187;1.0345;0.90143;-0.133067;
0.100197;1.03609;0.899836;-0.136259;
0.100207;1.03742;0.898509;-0.138913;
0.100217;1.03848;0.897457;-0.141019;
0.100227;1.03925;0.896683;-0.142569;
0.100237;1.03975;0.896189;-0.143557;
0.100247;1.03996;0.895978;-0.143978;
0.100257;1.03988;0.896052;-0.143832;
0.100267;1.03953;0.896408;-0.143119;
0.100277;1.03889;0.897047;-0.141841;
0.100287;1.03797;0.897965;-0.140004;
0.100297;1.03677;0.899159;-0.137614;
0.100307;1.03531;0.900624;-0.134682;
0.100317;1.03357;0.902355;-0.131219;
0.100327;1.03158;0.904344;-0.127238;
0.100337;1.02934;0.906585;-0.122754;
0.100347;1.02685;0.909068;-0.117787;
0.100357;1.02414;0.911783;-0.112354;
0.100367;1.0212;0.914719;-0.106478;
0.100377;1.01805;0.917866;-0.100182;
0.100387;1.0147;0.921211;-0.0934895;
0.100397;1.01117;0.924741;-0.0864282;
0.100407;1.00747;0.928441;-0.0790254;
0.100417;1.00361;0.932297;-0.0713104;
0.100427;0.999608;0.936294;-0.0633137;
0.100437;0.995484;0.940417;-0.0550667;
0.100447;0.991251;0.944648;-0.0466021;
0.100457;0.986925;0.948972;-0.0379532;
0.100467;0.982525;0.953371;-0.0291544;
0.100477;0.978068;0.957828;-0.0202403;
0.100487;0.973571;0.962324;-0.0112463;
0.100497;0.969051;0.966844;-0.00220777;
0.100507;0.964528;0.971367;0.00683941;
0.100517;0.960018;0.975878;0.0158595;
0.100527;0.95554;0.980357;0.0248168;
0.100537;0.951111;0.984787;0.0336759;
0.100547;0.946749;0.98915;0.0424018;
0.100557;0.94247;0.99343;0.05096;
0.100567;0.938293;0.99761;0.0593167;
0.100577;0.934233;1.00167;0.0674389;
0.100587;0.930306;1.0056;0.0752944;
0.100597;0.926529;1.00938;0.0828524;
0.100607;0.922915;1.013;0.090083;
0.100617;0.919479;1.01644;0.0969576;
0.100627;0.916234;1.01968;0.103449;
0.100637;0.913194;1.02273;0.109532;
0.100647;0.91037;1.02555;0.115183;
0.100657;0.907774;1.02815;0.120378;
0.100667;0.905415;1.03051;0.125099;
0.100677;0.903302;1.03263;0.129326;
0.100687;0.901445;1.03449;0.133042;
0.100697;0.89985;1.03608;0.136234;
0.100707;0.898524;1.03741;0.138888;
0.100717;0.897472;1.03847;0.140994;
0.100727;0.896697;1.03924;0.142544;
0.100737;0.896204;1.03974;0.143531;
0.100747;0.895993;1.03995;0.143953;
0.100757;0.896066;1.03987;0.143807;
0.100767;0.896423;1.03952;0.143093;
0.100777;0.897061;1.03888;0.141816;
0.100787;0.897979;1.03796;0.139978;
0.100797;0.899173;1.03676;0.137589;
0.100807;0.900639;1.0353;0.134657;
0.100817;0.90237;1.03356;0.131193;
0.100827;0.904359;1.03157;0.127212;
0.100837;0.9066;1.02933;0.122729;
0.100847;0.909082;1.02684;0.117761;
0.100857;0.911797;1.02413;0.112329;
0.100867;0.914734;1.02119;0.106453;
0.100877;0.917881;1.01804;0.100156;
0.100887;0.921226;1.01469;0.0934643;
0.100897;0.924755;1.01116;0.0864029;
0.100907;0.928455;1.00746;0.0790002;
0.100917;0.932312;1.0036;0.0712852;
0.100927;0.936309;0.999598;0.0632884;
0.100937;0.940432;0.995473;0.0550414;
0.100947;0.944663;0.99124;0.0465768;
0.100957;0.948987;0.986915;0.037928;
0.100967;0.953386;0.982515;0.0291291;
0.100977;0.957842;0.978057;0.0202151;
0.100987;0.962339;0.97356;0.011221;
0.100997;0.966858;0.969041;0.00218251;
0.101007;0.971382;0.964517;-0.00686466;
0.101017;0.975892;0.960008;-0.0158847;
0.101027;0.980371;0.955529;-0.024842;
0.101037;0.984801;0.9511;-0.0337012;
0.101047;0.989165;0.946738;-0.0424271;
0.101057;0.993445;0.94246;-0.0509853;
0.101067;0.997624;0.938282;-0.0593419;
0.101077;1.00169;0.934222;-0.0674641;
0.101087;1.00562;0.930296;-0.0753197;
0.101097;1.0094;0.926518;-0.0828776;
0.101107;1.01301;0.922904;-0.0901082;
0.101117;1.01645;0.919468;-0.0969828;
0.101127;1.0197;0.916224;-0.103474;
0.101137;1.02274;0.913184;-0.109557;
0.101147;1.02557;0.91036;-0.115208;
0.101157;1.02817;0.907763;-0.120404;
0.101167;1.03053;0.905404;-0.125124;
0.101177;1.03264;0.903292;-0.129351;
0.101187;1.0345;0.901435;-0.133067;
0.101197;1.0361;0.89984;-0.136259;
0.101207;1.03743;0.898514;-0.138913;
0.101217;1.03848;0.897461;-0.141019;
0.101227;1.03926;0.896687;-0.142569;
0.101237;1.03975;0.896193;-0.143557;
0.101247;1.03996;0.895983;-0.143978;
0.101257;1.03989;0.896056;-0.143832;
0.101267;1.03953;0.896412;-0.143119;
0.101277;1.03889;0.897051;-0.141841;
0.101287;1.03797;0.897969;-0.140004;
0.101297;1.03678;0.899163;-0.137614;
0.101307;1.03531;0.900628;-0.134682;
0.101317;1.03358;0.902359;-0.131219;
0.101327;1.03159;0.904349;-0.127237;
0.101337;1.02934;0.906589;-0.122754;
0.101347;1.02686;0.909072;-0.117787;
0.101357;1.02414;0.911787;-0.112354;
0.101367;1.0212;0.914724;-0.106478;
0.101377;1.01805;0.917871;-0.100182;
0.101387;1.0147;0.921215;-0.0934894;
0.101397;1.01117;0.924745;-0.0864281;
0.101407;1.00747;0.928445;-0.0790253;
0.101417;1.00361;0.932301;-0.0713103;
0.101427;0.999612;0.936299;-0.0633136;
0.101437;0.995488;0.940421;-0.0550666;
0.101447;0.991255;0.944653;-0.046602;
0.101457;0.986929;0.948976;-0.0379531;
0.101467;0.98253;0.953375;-0.0291543;
0.101477;0.978072;0.957832;-0.0202402;
0.101487;0.973575;0.962329;-0.0112462;
0.101497;0.969055;0.966848;-0.00220767;
0.101507;0.964532;0.971371;0.0068395;
0.101517;0.960022;0.975882;0.0158596;
0.101527;0.955544;0.980361;0.0248169;
0.101537;0.951115;0.984791;0.033676;
0.101547;0.946753;0.989155;0.0424019;
0.101557;0.942474;0.993435;0.0509601;
0.101567;0.938297;0.997614;0.0593168;
0.101577;0.934237;1.00168;0.067439;
0.101587;0.93031;1.00561;0.0752945;
0.101597;0.926533;1.00939;0.0828525;
0.101607;0.922919;1.013;0.0900831;
0.101617;0.919483;1.01644;0.0969577;
0.101627;0.916238;1.01969;0.103449;
0.101637;0.913198;1.02273;0.109532;
0.101647;0.910374;1.02556;0.115183;
0.101657;0.907778;1.02816;0.120379;
0.101667;0.905419;1.03052;0.125099;
0.101677;0.903306;1.03263;0.129326;
0.101687;0.901449;1.03449;0.133042;
0.101697;0.899854;1.03609;0.136234;
0.101707;0.898528;1.03742;0.138888;
0.101717;0.897476;1.03847;0.140994;
0.101727;0.896701;1.03925;0.142544;
0.101737;0.896208;1.03974;0.143531;
0.101747;0.895997;1.03995;0.143953;
0.101757;0.89607;1.03988;0.143807;
0.101767;0.896427;1.03952;0.143093;
0.101777;0.897065;1.03888;0.141816;
0.101787;0.897984;1.03796;0.139978;
0.101797;0.899178;1.03677;0.137589;
0.101807;0.900643;1.0353;0.134657;
0.101817;0.902374;1.03357;0.131194;
0.101827;0.904363;1.03158;0.127212;
0.101837;0.906604;1.02933;0.122729;
0.101847;0.909086;1.02685;0.117762;
0.101857;0.911801;1.02413;0.112329;
0.101867;0.914738;1.02119;0.106453;
0.101877;0.917885;1.01804;0.100156;
0.101887;0.92123;1.01469;0.0934644;
0.101897;0.924759;1.01116;0.086403;
0.101907;0.92846;1.00746;0.0790003;
0.101917;0.932316;1.0036;0.0712853;
0.101927;0.936313;0.999602;0.0632885;
0.101937;0.940436;0.995477;0.0550415;
0.101947;0.944667;0.991244;0.0465769;
0.101957;0.948991;0.986919;0.0379281;
0.101967;0.95339;0.982519;0.0291292;
0.101977;0.957846;0.978062;0.0202152;
0.101987;0.962343;0.973564;0.0112211;
0.101997;0.966862;0.969045;0.00218261;
0.102007;0.971386;0.964522;-0.00686456;
0.102017;0.975896;0.960012;-0.0158846;
0.102027;0.980375;0.955533;-0.0248419;
0.102037;0.984806;0.951104;-0.0337011;
0.102047;0.989169;0.946742;-0.042427;
0.102057;0.993449;0.942464;-0.0509852;
0.102067;0.997628;0.938287;-0.0593418;
0.102077;1.00169;0.934227;-0.067464;
0.102087;1.00562;0.9303;-0.0753196;
0.102097;1.0094;0.926522;-0.0828775;
0.102107;1.01302;0.922908;-0.0901081;
0.102117;1.01646;0.919472;-0.0969827;
0.102127;1.0197;0.916228;-0.103474;
0.102137;1.02275;0.913188;-0.109557;
0.102147;1.02557;0.910364;-0.115208;
0.102157;1.02817;0.907767;-0.120404;
0.102167;1.03053;0.905408;-0.125124;
0.102177;1.03265;0.903296;-0.129351;
0.102187;1.03451;0.901439;-0.133067;
0.102197;1.0361;0.899844;-0.136259;
0.102207;1.03743;0.898518;-0.138913;
0.102217;1.03848;0.897465;-0.141019;
0.102227;1.03926;0.896691;-0.142569;
0.102237;1.03975;0.896197;-0.143556;
0.102247;1.03996;0.895987;-0.143978;
0.102257;1.03989;0.89606;-0.143832;
0.102267;1.03953;0.896416;-0.143118;
0.102277;1.0389;0.897055;-0.141841;
0.102287;1.03798;0.897973;-0.140003;
0.102297;1.03678;0.899167;-0.137614;
0.102307;1.03531;0.900632;-0.134682;
0.102317;1.03358;0.902363;-0.131219;
0.102327;1.03159;0.904353;-0.127237;
0.102337;1.02935;0.906593;-0.122754;
0.102347;1.02686;0.909076;-0.117787;
0.102357;1.02415;0.911791;-0.112354;
0.102367;1.02121;0.914728;-0.106478;
0.102377;1.01806;0.917875;-0.100181;
0.102387;1.01471;0.92122;-0.0934893;
0.102397;1.01118;0.924749;-0.086428;
0.102407;1.00747;0.928449;-0.0790252;
0.102417;1.00362;0.932305;-0.0713102;
0.102427;0.999616;0.936303;-0.0633135;
0.102437;0.995492;0.940425;-0.0550665;
0.102447;0.991259;0.944657;-0.0466019;
0.102457;0.986934;0.948981;-0.037953;
0.102467;0.982534;0.953379;-0.0291542;
0.102477;0.978076;0.957836;-0.0202401;
0.102487;0.973579;0.962333;-0.0112461;
0.102497;0.96906;0.966852;-0.00220757;
0.102507;0.964536;0.971376;0.0068396;
0.102517;0.960026;0.975886;0.0158597;
0.102527;0.955548;0.980365;0.024817;
0.102537;0.951119;0.984795;0.0336761;
0.102547;0.946757;0.989159;0.042402;
0.102557;0.942479;0.993439;0.0509602;
0.102567;0.938301;0.997618;0.0593169;
0.102577;0.934241;1.00168;0.0674391;
0.102587;0.930315;1.00561;0.0752946;
0.102597;0.926537;1.00939;0.0828526;
0.102607;0.922923;1.01301;0.0900831;
0.102617;0.919487;1.01644;0.0969578;
0.102627;0.916243;1.01969;0.103449;
0.102637;0.913202;1.02273;0.109532;
0.102647;0.910378;1.02556;0.115183;
0.102657;0.907782;1.02816;0.120379;
0.102667;0.905423;1.03052;0.125099;
0.102677;0.903311;1.03264;0.129326;
0.102687;0.901453;1.0345;0.133042;
0.102697;0.899859;1.03609;0.136234;
0.102707;0.898532;1.03742;0.138888;
0.102717;0.89748;1.03847;0.140994;
0.102727;0.896706;1.03925;0.142544;
0.102737;0.896212;1.03974;0.143532;
0.102747;0.896001;1.03995;0.143953;
0.102757;0.896074;1.03988;0.143807;
0.102767;0.896431;1.03952;0.143094;
0.102777;0.89707;1.03889;0.141816;
0.102787;0.897988;1.03797;0.139979;
0.102797;0.899182;1.03677;0.137589;
0.102807;0.900647;1.0353;0.134657;
0.102817;0.902378;1.03357;0.131194;
0.102827;0.904367;1.03158;0.127212;
0.102837;0.906608;1.02934;0.122729;
0.102847;0.909091;1.02685;0.117762;
0.102857;0.911806;1.02413;0.112329;
0.102867;0.914742;1.0212;0.106453;
0.102877;0.917889;1.01805;0.100157;
0.102887;0.921234;1.0147;0.0934645;
0.102897;0.924763;1.01117;0.0864031;
0.102907;0.928464;1.00746;0.0790003;
0.102917;0.93232;1.00361;0.0712854;
0.102927;0.936317;0.999606;0.0632886;
0.102937;0.94044;0.995481;0.0550416;
0.102947;0.944671;0.991248;0.046577;
0.102957;0.948995;0.986923;0.0379282;
0.102967;0.953394;0.982523;0.0291293;
0.102977;0.957851;0.978066;0.0202153;
0.102987;0.962347;0.973569;0.0112212;
0.102997;0.966867;0.969049;0.00218271;
0.103007;0.97139;0.964526;-0.00686447;
0.103017;0.9759;0.960016;-0.0158845;
0.103027;0.98038;0.955538;-0.0248418;
0.103037;0.98481;0.951109;-0.033701;
0.103047;0.989173;0.946746;-0.0424269;
0.103057;0.993453;0.942468;-0.0509851;
0.103067;0.997633;0.938291;-0.0593418;
0.103077;1.00169;0.934231;-0.0674639;
0.103087;1.00562;0.930304;-0.0753195;
0.103097;1.0094;0.926527;-0.0828774;
0.103107;1.01302;0.922913;-0.090108;
0.103117;1.01646;0.919477;-0.0969826;
0.103127;1.01971;0.916232;-0.103474;
0.103137;1.02275;0.913192;-0.109557;
0.103147;1.02558;0.910368;-0.115208;
0.103157;1.02818;0.907772;-0.120403;
0.103167;1.03054;0.905413;-0.125124;
0.103177;1.03265;0.9033;-0.129351;
0.103187;1.03451;0.901443;-0.133067;
0.103197;1.03611;0.899848;-0.136259;
0.103207;1.03743;0.898522;-0.138913;
0.103217;1.03849;0.89747;-0.141019;
0.103227;1.03926;0.896695;-0.142569;
0.103237;1.03976;0.896202;-0.143556;
0.103247;1.03997;0.895991;-0.143978;
0.103257;1.0399;0.896064;-0.143832;
0.103267;1.03954;0.896421;-0.143118;
0.103277;1.0389;0.897059;-0.141841;
0.103287;1.03798;0.897977;-0.140003;
0.103297;1.03679;0.899171;-0.137614;
0.103307;1.03532;0.900637;-0.134682;
0.103317;1.03359;0.902368;-0.131218;
0.103327;1.03159;0.904357;-0.127237;
0.103337;1.02935;0.906598;-0.122754;
0.103347;1.02687;0.90908;-0.117786;
0.103357;1.02415;0.911795;-0.112354;
0.103367;1.02121;0.914732;-0.106478;
0.103377;1.01806;0.917879;-0.100181;
0.103387;1.01471;0.921224;-0.0934892;
0.103397;1.01118;0.924753;-0.0864279;
0.103407;1.00748;0.928453;-0.0790251;
0.103417;1.00362;0.93231;-0.0713101;
0.103427;0.99962;0.936307;-0.0633134;
0.103437;0.995496;0.94043;-0.0550664;
0.103447;0.991263;0.944661;-0.0466018;
0.103457;0.986938;0.948985;-0.037953;
0.103467;0.982538;0.953384;-0.0291541;
0.103477;0.97808;0.95784;-0.02024;
0.103487;0.973583;0.962337;-0.011246;
0.103497;0.969064;0.966856;-0.00220748;
0.103507;0.96454;0.97138;0.0068397;
0.103517;0.96003;0.97589;0.0158598;
0.103527;0.955552;0.980369;0.0248171;
0.103537;0.951123;0.984799;0.0336762;
0.103547;0.946761;0.989163;0.0424021;
0.103557;0.942483;0.993443;0.0509603;
0.103567;0.938305;0.997622;0.059317;
0.103577;0.934245;1.00168;0.0674392;
0.103587;0.930319;1.00561;0.0752947;
0.103597;0.926541;1.00939;0.0828527;
0.103607;0.922927;1.01301;0.0900832;
0.103617;0.919491;1.01645;0.0969579;
0.103627;0.916247;1.0197;0.103449;
0.103637;0.913206;1.02274;0.109533;
0.103647;0.910383;1.02557;0.115183;
0.103657;0.907786;1.02816;0.120379;
0.103667;0.905427;1.03053;0.125099;
0.103677;0.903315;1.03264;0.129326;
0.103687;0.901458;1.0345;0.133042;
0.103697;0.899863;1.0361;0.136234;
0.103707;0.898537;1.03742;0.138888;
0.103717;0.897484;1.03848;0.140994;
0.103727;0.89671;1.03925;0.142544;
0.103737;0.896216;1.03975;0.143532;
0.103747;0.896006;1.03996;0.143953;
0.103757;0.896079;1.03989;0.143807;
0.103767;0.896435;1.03953;0.143094;
0.103777;0.897074;1.03889;0.141816;
0.103787;0.897992;1.03797;0.139979;
0.103797;0.899186;1.03678;0.137589;
0.103807;0.900651;1.03531;0.134657;
0.103817;0.902382;1.03358;0.131194;
0.103827;0.904372;1.03158;0.127213;
0.103837;0.906612;1.02934;0.122729;
0.103847;0.909095;1.02686;0.117762;
0.103857;0.91181;1.02414;0.112329;
0.103867;0.914746;1.0212;0.106453;
0.103877;0.917893;1.01805;0.100157;
0.103887;0.921238;1.0147;0.0934646;
0.103897;0.924768;1.01117;0.0864032;
0.103907;0.928468;1.00747;0.0790004;
0.103917;0.932324;1.00361;0.0712855;
0.103927;0.936321;0.99961;0.0632887;
0.103937;0.940444;0.995486;0.0550417;
0.103947;0.944675;0.991253;0.0465771;
0.103957;0.948999;0.986927;0.0379283;
0.103967;0.953398;0.982528;0.0291294;
0.103977;0.957855;0.97807;0.0202154;
0.103987;0.962351;0.973573;0.0112213;
0.103997;0.966871;0.969053;0.0021828;
0.104007;0.971394;0.96453;-0.00686437;
0.104017;0.975905;0.96002;-0.0158844;
0.104027;0.980384;0.955542;-0.0248417;
0.104037;0.984814;0.951113;-0.0337009;
0.104047;0.989177;0.946751;-0.0424268;
0.104057;0.993457;0.942472;-0.050985;
0.104067;0.997637;0.938295;-0.0593417;
0.104077;1.0017;0.934235;-0.0674638;
0.104087;1.00563;0.930309;-0.0753194;
0.104097;1.00941;0.926531;-0.0828773;
0.104107;1.01302;0.922917;-0.0901079;
0.104117;1.01646;0.919481;-0.0969825;
0.104127;1.01971;0.916236;-0.103474;
0.104137;1.02275;0.913196;-0.109557;
0.104147;1.02558;0.910372;-0.115208;
0.104157;1.02818;0.907776;-0.120403;
0.104167;1.03054;0.905417;-0.125124;
0.104177;1.03266;0.903305;-0.129351;
0.104187;1.03451;0.901447;-0.133067;
0.104197;1.03611;0.899853;-0.136259;
0.104207;1.03744;0.898526;-0.138913;
0.104217;1.03849;0.897474;-0.141019;
0.104227;1.03927;0.896699;-0.142569;
0.104237;1.03976;0.896206;-0.143556;
0.104247;1.03997;0.895995;-0.143978;
0.104257;1.0399;0.896068;-0.143832;
0.104267;1.03954;0.896425;-0.143118;
0.104277;1.0389;0.897063;-0.14184;
0.104287;1.03798;0.897982;-0.140003;
0.104297;1.03679;0.899176;-0.137614;
0.104307;1.03532;0.900641;-0.134682;
0.104317;1.03359;0.902372;-0.131218;
0.104327;1.0316;0.904361;-0.127237;
0.104337;1.02936;0.906602;-0.122754;
0.104347;1.02687;0.909084;-0.117786;
0.104357;1.02415;0.911799;-0.112354;
0.104367;1.02121;0.914736;-0.106478;
0.104377;1.01806;0.917883;-0.100181;
0.104387;1.01472;0.921228;-0.0934891;
0.104397;1.01119;0.924757;-0.0864278;
0.104407;1.00748;0.928458;-0.079025;
0.104417;1.00362;0.932314;-0.07131;
0.104427;0.999625;0.936311;-0.0633133;
0.104437;0.9955;0.940434;-0.0550663;
0.104447;0.991267;0.944665;-0.0466017;
0.104457;0.986942;0.948989;-0.0379529;
0.104467;0.982542;0.953388;-0.029154;
0.104477;0.978084;0.957845;-0.0202399;
0.104487;0.973587;0.962341;-0.0112459;
0.104497;0.969068;0.96686;-0.00220738;
0.104507;0.964544;0.971384;0.00683979;
0.104517;0.960035;0.975894;0.0158599;
0.104527;0.955556;0.980373;0.0248172;
0.104537;0.951127;0.984804;0.0336763;
0.104547;0.946765;0.989167;0.0424022;
0.104557;0.942487;0.993447;0.0509604;
0.104567;0.938309;0.997627;0.0593171;
0.104577;0.934249;1.00169;0.0674393;
0.104587;0.930323;1.00562;0.0752948;
0.104597;0.926545;1.0094;0.0828528;
0.104607;0.922931;1.01301;0.0900833;
0.104617;0.919495;1.01645;0.096958;
0.104627;0.916251;1.0197;0.10345;
0.104637;0.913211;1.02274;0.109533;
0.104647;0.910387;1.02557;0.115183;
0.104657;0.90779;1.02817;0.120379;
0.104667;0.905431;1.03053;0.125099;
0.104677;0.903319;1.03264;0.129326;
0.104687;0.901462;1.0345;0.133043;
0.104697;0.899867;1.0361;0.136234;
0.104707;0.898541;1.03743;0.138888;
0.104717;0.897488;1.03848;0.140994;
0.104727;0.896714;1.03926;0.142544;
0.104737;0.89622;1.03975;0.143532;
0.104747;0.89601;1.03996;0.143953;
0.104757;0.896083;1.03989;0.143807;
0.104767;0.896439;1.03953;0.143094;
0.104777;0.897078;1.03889;0.141816;
0.104787;0.897996;1.03797;0.139979;
0.104797;0.89919;1.03678;0.137589;
0.104807;0.900655;1.03531;0.134657;
0.104817;0.902386;1.03358;0.131194;
0.104827;0.904376;1.03159;0.127213;
0.104837;0.906616;1.02935;0.122729;
0.104847;0.909099;1.02686;0.117762;
0.104857;0.911814;1.02414;0.112329;
0.104867;0.914751;1.0212;0.106453;
0.104877;0.917898;1.01805;0.100157;
0.104887;0.921242;1.01471;0.0934647;
0.104897;0.924772;1.01118;0.0864033;
0.104907;0.928472;1.00747;0.0790005;
0.104917;0.932328;1.00361;0.0712855;
0.104927;0.936326;0.999614;0.0632888;
0.104937;0.940448;0.99549;0.0550418;
0.104947;0.94468;0.991257;0.0465772;
0.104957;0.949003;0.986932;0.0379284;
0.104967;0.953402;0.982532;0.0291295;
0.104977;0.957859;0.978074;0.0202155;
0.104987;0.962356;0.973577;0.0112214;
0.104997;0.966875;0.969058;0.0021829;
0.105007;0.971398;0.964534;-0.00686427;
0.105017;0.975909;0.960024;-0.0158843;
0.105027;0.980388;0.955546;-0.0248417;
0.105037;0.984818;0.951117;-0.0337008;
0.105047;0.989182;0.946755;-0.0424267;
0.105057;0.993462;0.942477;-0.0509849;
0.105067;0.997641;0.938299;-0.0593416;
0.105077;1.0017;0.934239;-0.0674637;
0.105087;1.00563;0.930313;-0.0753193;
0.105097;1.00941;0.926535;-0.0828772;
0.105107;1.01303;0.922921;-0.0901078;
0.105117;1.01647;0.919485;-0.0969824;
0.105127;1.01971;0.916241;-0.103474;
0.105137;1.02276;0.913201;-0.109557;
0.105147;1.02558;0.910377;-0.115208;
0.105157;1.02818;0.90778;-0.120403;
0.105167;1.03054;0.905421;-0.125124;
0.105177;1.03266;0.903309;-0.129351;
0.105187;1.03452;0.901452;-0.133067;
0.105197;1.03612;0.899857;-0.136258;
0.105207;1.03744;0.898531;-0.138912;
0.105217;1.0385;0.897478;-0.141019;
0.105227;1.03927;0.896704;-0.142568;
0.105237;1.03977;0.89621;-0.143556;
