time;V(/OUT_N);V(/OUT_P);V(/OUT_SINGLE);V(/Vmid);
9.00001;0.555425;0.554778;2.48553;2.5;
9.00002;0.558196;0.557548;2.50286;2.5;
9.00003;0.560951;0.560305;2.52013;2.5;
9.00004;0.563677;0.563036;2.53729;2.5;
9.00005;0.566365;0.565731;2.55426;2.5;
9.00006;0.569004;0.56838;2.57097;2.5;
9.00007;0.571583;0.570971;2.58736;2.5;
9.00008;0.574092;0.573495;2.60336;2.5;
9.00009;0.576521;0.575941;2.61891;2.5;
9.0001;0.57886;0.5783;2.63395;2.5;
9.00011;0.581101;0.580562;2.64841;2.5;
9.00012;0.583234;0.582719;2.66225;2.5;
9.00013;0.585251;0.584761;2.67541;2.5;
9.00014;0.587144;0.586682;2.68783;2.5;
9.00015;0.588906;0.588473;2.69947;2.5;
9.00016;0.590529;0.590127;2.71028;2.5;
9.00017;0.592008;0.591639;2.72022;2.5;
9.00018;0.593336;0.593001;2.72924;2.5;
9.00019;0.594509;0.594209;2.73733;2.5;
9.0002;0.595521;0.595258;2.74444;2.5;
9.00021;0.59637;0.596144;2.75054;2.5;
9.00022;0.597051;0.596864;2.75562;2.5;
9.00023;0.597562;0.597414;2.75965;2.5;
9.00024;0.597901;0.597793;2.76262;2.5;
9.00025;0.598066;0.597999;2.76451;2.5;
9.00026;0.598058;0.598031;2.76533;2.5;
9.00027;0.597876;0.597889;2.76506;2.5;
9.00028;0.597521;0.597574;2.7637;2.5;
9.00029;0.596993;0.597087;2.76127;2.5;
9.0003;0.596296;0.59643;2.75777;2.5;
9.00031;0.595432;0.595605;2.75322;2.5;
9.00032;0.594404;0.594616;2.74762;2.5;
9.00033;0.593217;0.593467;2.74102;2.5;
9.00034;0.591874;0.592161;2.73342;2.5;
9.00035;0.590381;0.590704;2.72486;2.5;
9.00036;0.588745;0.589102;2.71537;2.5;
9.00037;0.58697;0.587361;2.70499;2.5;
9.00038;0.585065;0.585487;2.69377;2.5;
9.00039;0.583037;0.583489;2.68173;2.5;
9.0004;0.580893;0.581374;2.66894;2.5;
9.00041;0.578643;0.57915;2.65544;2.5;
9.00042;0.576295;0.576826;2.64128;2.5;
9.00043;0.573858;0.574411;2.62652;2.5;
9.00044;0.571341;0.571915;2.61122;2.5;
9.00045;0.568756;0.569348;2.59543;2.5;
9.00046;0.566113;0.56672;2.57923;2.5;
9.00047;0.56342;0.564041;2.56267;2.5;
9.00048;0.560691;0.561322;2.54582;2.5;
9.00049;0.557934;0.558573;2.52876;2.5;
9.0005;0.555162;0.555807;2.51153;2.5;
9.00051;0.552385;0.553033;2.49422;2.5;
9.00052;0.549615;0.550263;2.47689;2.5;
9.00053;0.546862;0.547508;2.45962;2.5;
9.00054;0.544137;0.544778;2.44246;2.5;
9.00055;0.541451;0.542085;2.42549;2.5;
9.00056;0.538815;0.539439;2.40878;2.5;
9.00057;0.53624;0.536851;2.39239;2.5;
9.00058;0.533734;0.534331;2.37639;2.5;
9.00059;0.531309;0.531889;2.36084;2.5;
9.0006;0.528974;0.529535;2.3458;2.5;
9.00061;0.526738;0.527277;2.33134;2.5;
9.00062;0.524609;0.525125;2.3175;2.5;
9.00063;0.522597;0.523087;2.30434;2.5;
9.00064;0.520709;0.521171;2.29192;2.5;
9.00065;0.518951;0.519384;2.28028;2.5;
9.00066;0.517333;0.517734;2.26947;2.5;
9.00067;0.515858;0.516227;2.25954;2.5;
9.00068;0.514534;0.514869;2.25051;2.5;
9.00069;0.513365;0.513664;2.24242;2.5;
9.0007;0.512355;0.512618;2.23531;2.5;
9.00071;0.51151;0.511735;2.22921;2.5;
9.00072;0.510831;0.511018;2.22413;2.5;
9.00073;0.510321;0.510469;2.2201;2.5;
9.00074;0.509984;0.510092;2.21713;2.5;
9.00075;0.509818;0.509886;2.21524;2.5;
9.00076;0.509827;0.509854;2.21442;2.5;
9.00077;0.510008;0.509995;2.21469;2.5;
9.00078;0.510362;0.510309;2.21605;2.5;
9.00079;0.510888;0.510794;2.21848;2.5;
9.0008;0.511582;0.511449;2.22198;2.5;
9.00081;0.512444;0.512271;2.22653;2.5;
9.00082;0.513468;0.513256;2.23213;2.5;
9.00083;0.514652;0.514402;2.23873;2.5;
9.00084;0.515991;0.515704;2.24633;2.5;
9.00085;0.517479;0.517157;2.25489;2.5;
9.00086;0.519112;0.518754;2.26438;2.5;
9.00087;0.520881;0.520491;2.27476;2.5;
9.00088;0.522782;0.52236;2.28598;2.5;
9.00089;0.524805;0.524353;2.29802;2.5;
9.0009;0.526944;0.526464;2.31081;2.5;
9.00091;0.52919;0.528683;2.32432;2.5;
9.00092;0.531534;0.531003;2.33847;2.5;
9.00093;0.533967;0.533414;2.35323;2.5;
9.00094;0.53648;0.535906;2.36854;2.5;
9.00095;0.539062;0.53847;2.38432;2.5;
9.00096;0.541703;0.541096;2.40052;2.5;
9.00097;0.544393;0.543773;2.41708;2.5;
9.00098;0.547121;0.54649;2.43393;2.5;
9.00099;0.549876;0.549237;2.451;2.5;
9.001;0.552647;0.552003;2.46822;2.5;
9.00101;0.555424;0.554777;2.48553;2.5;
9.00102;0.558195;0.557548;2.50286;2.5;
9.00103;0.56095;0.560304;2.52013;2.5;
9.00104;0.563676;0.563035;2.53729;2.5;
9.00105;0.566364;0.56573;2.55426;2.5;
9.00106;0.569003;0.568379;2.57097;2.5;
9.00107;0.571582;0.57097;2.58736;2.5;
9.00108;0.574091;0.573494;2.60336;2.5;
9.00109;0.57652;0.57594;2.61891;2.5;
9.0011;0.578859;0.578299;2.63395;2.5;
9.00111;0.5811;0.580561;2.64841;2.5;
9.00112;0.583233;0.582718;2.66225;2.5;
9.00113;0.58525;0.58476;2.67541;2.5;
9.00114;0.587143;0.586681;2.68783;2.5;
9.00115;0.588905;0.588472;2.69947;2.5;
9.00116;0.590528;0.590126;2.71028;2.5;
9.00117;0.592007;0.591638;2.72022;2.5;
9.00118;0.593335;0.593;2.72924;2.5;
9.00119;0.594508;0.594208;2.73733;2.5;
9.0012;0.59552;0.595257;2.74444;2.5;
9.00121;0.596369;0.596143;2.75054;2.5;
9.00122;0.59705;0.596863;2.75562;2.5;
9.00123;0.597561;0.597413;2.75965;2.5;
9.00124;0.5979;0.597792;2.76262;2.5;
9.00125;0.598065;0.597998;2.76451;2.5;
9.00126;0.598057;0.59803;2.76533;2.5;
9.00127;0.597875;0.597888;2.76506;2.5;
9.00128;0.59752;0.597573;2.7637;2.5;
9.00129;0.596992;0.597086;2.76127;2.5;
9.0013;0.596295;0.596429;2.75777;2.5;
9.00131;0.595431;0.595605;2.75322;2.5;
9.00132;0.594403;0.594615;2.74762;2.5;
9.00133;0.593216;0.593466;2.74102;2.5;
9.00134;0.591873;0.59216;2.73342;2.5;
9.00135;0.59038;0.590703;2.72486;2.5;
9.00136;0.588744;0.589101;2.71537;2.5;
9.00137;0.586969;0.58736;2.70499;2.5;
9.00138;0.585064;0.585486;2.69377;2.5;
9.00139;0.583036;0.583488;2.68173;2.5;
9.0014;0.580892;0.581373;2.66894;2.5;
9.00141;0.578642;0.579149;2.65544;2.5;
9.00142;0.576294;0.576825;2.64128;2.5;
9.00143;0.573857;0.57441;2.62652;2.5;
9.00144;0.571341;0.571914;2.61122;2.5;
9.00145;0.568756;0.569347;2.59543;2.5;
9.00146;0.566112;0.566719;2.57923;2.5;
9.00147;0.56342;0.56404;2.56267;2.5;
9.00148;0.56069;0.561321;2.54582;2.5;
9.00149;0.557934;0.558572;2.52876;2.5;
9.0015;0.555161;0.555806;2.51153;2.5;
9.00151;0.552385;0.553032;2.49422;2.5;
9.00152;0.549614;0.550262;2.47689;2.5;
9.00153;0.546861;0.547507;2.45962;2.5;
9.00154;0.544136;0.544777;2.44246;2.5;
9.00155;0.54145;0.542084;2.42549;2.5;
9.00156;0.538814;0.539438;2.40878;2.5;
9.00157;0.536239;0.53685;2.39239;2.5;
9.00158;0.533733;0.53433;2.37639;2.5;
9.00159;0.531308;0.531888;2.36084;2.5;
9.0016;0.528973;0.529534;2.3458;2.5;
9.00161;0.526737;0.527276;2.33134;2.5;
9.00162;0.524608;0.525124;2.3175;2.5;
9.00163;0.522596;0.523086;2.30434;2.5;
9.00164;0.520708;0.52117;2.29192;2.5;
9.00165;0.518951;0.519383;2.28028;2.5;
9.00166;0.517332;0.517733;2.26947;2.5;
9.00167;0.515857;0.516226;2.25954;2.5;
9.00168;0.514533;0.514868;2.25051;2.5;
9.00169;0.513364;0.513663;2.24242;2.5;
9.0017;0.512354;0.512617;2.23531;2.5;
9.00171;0.511509;0.511734;2.22921;2.5;
9.00172;0.51083;0.511017;2.22413;2.5;
9.00173;0.510321;0.510468;2.2201;2.5;
9.00174;0.509983;0.510091;2.21713;2.5;
9.00175;0.509817;0.509885;2.21524;2.5;
9.00176;0.509826;0.509853;2.21442;2.5;
9.00177;0.510007;0.509994;2.21469;2.5;
9.00178;0.510361;0.510308;2.21605;2.5;
9.00179;0.510887;0.510793;2.21848;2.5;
9.0018;0.511582;0.511448;2.22198;2.5;
9.00181;0.512443;0.51227;2.22653;2.5;
9.00182;0.513467;0.513255;2.23213;2.5;
9.00183;0.514651;0.514401;2.23873;2.5;
9.00184;0.51599;0.515703;2.24633;2.5;
9.00185;0.517478;0.517156;2.25489;2.5;
9.00186;0.519111;0.518753;2.26438;2.5;
9.00187;0.52088;0.52049;2.27476;2.5;
9.00188;0.522781;0.522359;2.28598;2.5;
9.00189;0.524804;0.524352;2.29802;2.5;
9.0019;0.526943;0.526463;2.31081;2.5;
9.00191;0.529189;0.528683;2.32432;2.5;
9.00192;0.531534;0.531002;2.33847;2.5;
9.00193;0.533967;0.533413;2.35323;2.5;
9.00194;0.536479;0.535905;2.36854;2.5;
9.00195;0.539061;0.538469;2.38432;2.5;
9.00196;0.541702;0.541095;2.40052;2.5;
9.00197;0.544392;0.543772;2.41708;2.5;
9.00198;0.54712;0.546489;2.43393;2.5;
9.00199;0.549875;0.549236;2.451;2.5;
9.002;0.552647;0.552002;2.46822;2.5;
9.00201;0.555423;0.554776;2.48553;2.5;
9.00202;0.558194;0.557547;2.50286;2.5;
9.00203;0.560949;0.560303;2.52013;2.5;
9.00204;0.563675;0.563034;2.53729;2.5;
9.00205;0.566363;0.56573;2.55426;2.5;
9.00206;0.569002;0.568378;2.57097;2.5;
9.00207;0.571581;0.570969;2.58736;2.5;
9.00208;0.57409;0.573493;2.60336;2.5;
9.00209;0.576519;0.575939;2.61891;2.5;
9.0021;0.578858;0.578298;2.63395;2.5;
9.00211;0.581099;0.58056;2.64841;2.5;
9.00212;0.583232;0.582717;2.66225;2.5;
9.00213;0.585249;0.584759;2.67541;2.5;
9.00214;0.587142;0.58668;2.68783;2.5;
9.00215;0.588904;0.588471;2.69947;2.5;
9.00216;0.590527;0.590125;2.71028;2.5;
9.00217;0.592006;0.591637;2.72022;2.5;
9.00218;0.593334;0.592999;2.72924;2.5;
9.00219;0.594507;0.594207;2.73733;2.5;
9.0022;0.595519;0.595256;2.74444;2.5;
9.00221;0.596368;0.596142;2.75054;2.5;
9.00222;0.597049;0.596862;2.75562;2.5;
9.00223;0.59756;0.597412;2.75965;2.5;
9.00224;0.597899;0.597791;2.76262;2.5;
9.00225;0.598065;0.597997;2.76451;2.5;
9.00226;0.598056;0.598029;2.76533;2.5;
9.00227;0.597874;0.597887;2.76506;2.5;
9.00228;0.597519;0.597572;2.7637;2.5;
9.00229;0.596992;0.597085;2.76127;2.5;
9.0023;0.596295;0.596428;2.75777;2.5;
9.00231;0.59543;0.595604;2.75322;2.5;
9.00232;0.594403;0.594614;2.74762;2.5;
9.00233;0.593215;0.593465;2.74102;2.5;
9.00234;0.591872;0.592159;2.73342;2.5;
9.00235;0.59038;0.590702;2.72486;2.5;
9.00236;0.588743;0.5891;2.71537;2.5;
9.00237;0.586968;0.587359;2.70499;2.5;
9.00238;0.585063;0.585486;2.69377;2.5;
9.00239;0.583035;0.583487;2.68173;2.5;
9.0024;0.580891;0.581372;2.66894;2.5;
9.00241;0.578641;0.579148;2.65544;2.5;
9.00242;0.576293;0.576824;2.64128;2.5;
9.00243;0.573856;0.574409;2.62652;2.5;
9.00244;0.57134;0.571913;2.61122;2.5;
9.00245;0.568755;0.569346;2.59543;2.5;
9.00246;0.566111;0.566718;2.57923;2.5;
9.00247;0.563419;0.564039;2.56267;2.5;
9.00248;0.560689;0.56132;2.54582;2.5;
9.00249;0.557933;0.558571;2.52876;2.5;
9.0025;0.55516;0.555805;2.51153;2.5;
9.00251;0.552384;0.553031;2.49422;2.5;
9.00252;0.549613;0.550261;2.47689;2.5;
9.00253;0.54686;0.547506;2.45962;2.5;
9.00254;0.544135;0.544776;2.44246;2.5;
9.00255;0.541449;0.542083;2.42549;2.5;
9.00256;0.538813;0.539437;2.40878;2.5;
9.00257;0.536238;0.536849;2.39239;2.5;
9.00258;0.533732;0.534329;2.37639;2.5;
9.00259;0.531307;0.531887;2.36084;2.5;
9.0026;0.528972;0.529533;2.3458;2.5;
9.00261;0.526736;0.527275;2.33134;2.5;
9.00262;0.524607;0.525123;2.3175;2.5;
9.00263;0.522595;0.523085;2.30434;2.5;
9.00264;0.520707;0.521169;2.29192;2.5;
9.00265;0.51895;0.519382;2.28028;2.5;
9.00266;0.517331;0.517732;2.26947;2.5;
9.00267;0.515856;0.516225;2.25954;2.5;
9.00268;0.514532;0.514867;2.25051;2.5;
9.00269;0.513363;0.513662;2.24242;2.5;
9.0027;0.512354;0.512616;2.23531;2.5;
9.00271;0.511508;0.511733;2.22921;2.5;
9.00272;0.510829;0.511016;2.22413;2.5;
9.00273;0.51032;0.510467;2.2201;2.5;
9.00274;0.509982;0.51009;2.21713;2.5;
9.00275;0.509817;0.509884;2.21524;2.5;
9.00276;0.509825;0.509852;2.21442;2.5;
9.00277;0.510006;0.509993;2.21469;2.5;
9.00278;0.51036;0.510307;2.21605;2.5;
9.00279;0.510886;0.510792;2.21848;2.5;
9.0028;0.511581;0.511447;2.22198;2.5;
9.00281;0.512442;0.512269;2.22653;2.5;
9.00282;0.513466;0.513255;2.23213;2.5;
9.00283;0.51465;0.514401;2.23873;2.5;
9.00284;0.515989;0.515702;2.24633;2.5;
9.00285;0.517478;0.517155;2.25489;2.5;
9.00286;0.51911;0.518752;2.26438;2.5;
9.00287;0.520879;0.520489;2.27476;2.5;
9.00288;0.52278;0.522358;2.28598;2.5;
9.00289;0.524804;0.524351;2.29802;2.5;
9.0029;0.526943;0.526462;2.31081;2.5;
9.00291;0.529188;0.528682;2.32432;2.5;
9.00292;0.531533;0.531001;2.33847;2.5;
9.00293;0.533966;0.533412;2.35323;2.5;
9.00294;0.536478;0.535904;2.36854;2.5;
9.00295;0.53906;0.538468;2.38432;2.5;
9.00296;0.541701;0.541094;2.40052;2.5;
9.00297;0.544391;0.543771;2.41708;2.5;
9.00298;0.547119;0.546488;2.43393;2.5;
9.00299;0.549874;0.549235;2.451;2.5;
9.003;0.552646;0.552001;2.46822;2.5;
9.00301;0.555422;0.554775;2.48553;2.5;
9.00302;0.558194;0.557546;2.50286;2.5;
9.00303;0.560948;0.560302;2.52013;2.5;
9.00304;0.563674;0.563033;2.53729;2.5;
9.00305;0.566362;0.565729;2.55426;2.5;
9.00306;0.569001;0.568377;2.57097;2.5;
9.00307;0.57158;0.570968;2.58736;2.5;
9.00308;0.574089;0.573492;2.60336;2.5;
9.00309;0.576518;0.575938;2.61891;2.5;
9.0031;0.578857;0.578297;2.63395;2.5;
9.00311;0.581098;0.580559;2.64841;2.5;
9.00312;0.583231;0.582716;2.66225;2.5;
9.00313;0.585248;0.584758;2.67541;2.5;
9.00314;0.587141;0.586679;2.68783;2.5;
9.00315;0.588903;0.58847;2.69947;2.5;
9.00316;0.590526;0.590125;2.71028;2.5;
9.00317;0.592005;0.591636;2.72022;2.5;
9.00318;0.593333;0.592998;2.72924;2.5;
9.00319;0.594506;0.594206;2.73733;2.5;
9.0032;0.595518;0.595255;2.74444;2.5;
9.00321;0.596367;0.596141;2.75054;2.5;
9.00322;0.597048;0.596861;2.75562;2.5;
9.00323;0.597559;0.597411;2.75965;2.5;
9.00324;0.597898;0.59779;2.76262;2.5;
9.00325;0.598064;0.597996;2.76451;2.5;
9.00326;0.598055;0.598028;2.76533;2.5;
9.00327;0.597873;0.597886;2.76506;2.5;
9.00328;0.597518;0.597571;2.7637;2.5;
9.00329;0.596991;0.597085;2.76127;2.5;
9.0033;0.596294;0.596427;2.75777;2.5;
9.00331;0.595429;0.595603;2.75322;2.5;
9.00332;0.594402;0.594614;2.74762;2.5;
9.00333;0.593214;0.593464;2.74102;2.5;
9.00334;0.591871;0.592158;2.73342;2.5;
9.00335;0.590379;0.590701;2.72486;2.5;
9.00336;0.588742;0.589099;2.71537;2.5;
9.00337;0.586968;0.587358;2.70499;2.5;
9.00338;0.585062;0.585485;2.69377;2.5;
9.00339;0.583034;0.583486;2.68173;2.5;
9.0034;0.580891;0.581371;2.66894;2.5;
9.00341;0.57864;0.579147;2.65544;2.5;
9.00342;0.576292;0.576823;2.64128;2.5;
9.00343;0.573855;0.574408;2.62652;2.5;
9.00344;0.571339;0.571912;2.61122;2.5;
9.00345;0.568754;0.569345;2.59543;2.5;
9.00346;0.56611;0.566717;2.57923;2.5;
9.00347;0.563418;0.564038;2.56267;2.5;
9.00348;0.560688;0.561319;2.54582;2.5;
9.00349;0.557932;0.55857;2.52876;2.5;
9.0035;0.55516;0.555804;2.51153;2.5;
9.00351;0.552383;0.55303;2.49422;2.5;
9.00352;0.549612;0.55026;2.47689;2.5;
9.00353;0.546859;0.547505;2.45962;2.5;
9.00354;0.544134;0.544775;2.44246;2.5;
9.00355;0.541449;0.542082;2.42549;2.5;
9.00356;0.538813;0.539437;2.40878;2.5;
9.00357;0.536237;0.536849;2.39239;2.5;
9.00358;0.533731;0.534328;2.37639;2.5;
9.00359;0.531306;0.531886;2.36084;2.5;
9.0036;0.528971;0.529532;2.3458;2.5;
9.00361;0.526735;0.527274;2.33134;2.5;
9.00362;0.524606;0.525122;2.3175;2.5;
9.00363;0.522594;0.523084;2.30434;2.5;
9.00364;0.520706;0.521168;2.29192;2.5;
9.00365;0.518949;0.519381;2.28028;2.5;
9.00366;0.51733;0.517731;2.26947;2.5;
9.00367;0.515855;0.516224;2.25954;2.5;
9.00368;0.514531;0.514866;2.25051;2.5;
9.00369;0.513362;0.513661;2.24242;2.5;
9.0037;0.512353;0.512615;2.23531;2.5;
9.00371;0.511507;0.511732;2.22921;2.5;
9.00372;0.510828;0.511015;2.22413;2.5;
9.00373;0.510319;0.510466;2.2201;2.5;
9.00374;0.509981;0.510089;2.21713;2.5;
9.00375;0.509816;0.509883;2.21524;2.5;
9.00376;0.509824;0.509851;2.21442;2.5;
9.00377;0.510005;0.509992;2.21469;2.5;
9.00378;0.51036;0.510306;2.21605;2.5;
9.00379;0.510885;0.510791;2.21848;2.5;
9.0038;0.51158;0.511446;2.22198;2.5;
9.00381;0.512441;0.512268;2.22653;2.5;
9.00382;0.513466;0.513254;2.23213;2.5;
9.00383;0.51465;0.5144;2.23873;2.5;
9.00384;0.515988;0.515701;2.24633;2.5;
9.00385;0.517477;0.517154;2.25489;2.5;
9.00386;0.519109;0.518752;2.26438;2.5;
9.00387;0.520879;0.520488;2.27476;2.5;
9.00388;0.522779;0.522357;2.28598;2.5;
9.00389;0.524803;0.52435;2.29802;2.5;
9.0039;0.526942;0.526461;2.31081;2.5;
9.00391;0.529188;0.528681;2.32432;2.5;
9.00392;0.531532;0.531;2.33847;2.5;
9.00393;0.533965;0.533411;2.35323;2.5;
9.00394;0.536477;0.535904;2.36854;2.5;
9.00395;0.539059;0.538468;2.38432;2.5;
9.00396;0.5417;0.541093;2.40052;2.5;
9.00397;0.54439;0.54377;2.41708;2.5;
9.00398;0.547118;0.546487;2.43393;2.5;
9.00399;0.549873;0.549234;2.451;2.5;
9.004;0.552645;0.552;2.46822;2.5;
9.00401;0.555422;0.554774;2.48553;2.5;
9.00402;0.558193;0.557545;2.50286;2.5;
9.00403;0.560947;0.560301;2.52013;2.5;
9.00404;0.563673;0.563032;2.53729;2.5;
9.00405;0.566361;0.565728;2.55426;2.5;
9.00406;0.569;0.568376;2.57097;2.5;
9.00407;0.571579;0.570967;2.58736;2.5;
9.00408;0.574088;0.573491;2.60336;2.5;
9.00409;0.576517;0.575937;2.61891;2.5;
9.0041;0.578857;0.578296;2.63395;2.5;
9.00411;0.581097;0.580558;2.64841;2.5;
9.00412;0.58323;0.582715;2.66225;2.5;
9.00413;0.585247;0.584757;2.67541;2.5;
9.00414;0.58714;0.586678;2.68783;2.5;
9.00415;0.588902;0.588469;2.69947;2.5;
9.00416;0.590525;0.590124;2.71028;2.5;
9.00417;0.592004;0.591635;2.72022;2.5;
9.00418;0.593332;0.592997;2.72924;2.5;
9.00419;0.594505;0.594205;2.73733;2.5;
9.0042;0.595517;0.595254;2.74444;2.5;
9.00421;0.596366;0.596141;2.75054;2.5;
9.00422;0.597047;0.59686;2.75562;2.5;
9.00423;0.597558;0.59741;2.75965;2.5;
9.00424;0.597897;0.597789;2.76262;2.5;
9.00425;0.598063;0.597995;2.76451;2.5;
9.00426;0.598054;0.598027;2.76533;2.5;
9.00427;0.597872;0.597885;2.76506;2.5;
9.00428;0.597517;0.597571;2.7637;2.5;
9.00429;0.59699;0.597084;2.76127;2.5;
9.0043;0.596293;0.596426;2.75777;2.5;
9.00431;0.595429;0.595602;2.75322;2.5;
9.00432;0.594401;0.594613;2.74762;2.5;
9.00433;0.593213;0.593463;2.74102;2.5;
9.00434;0.59187;0.592157;2.73342;2.5;
9.00435;0.590378;0.5907;2.72486;2.5;
9.00436;0.588741;0.589098;2.71537;2.5;
9.00437;0.586967;0.587357;2.70499;2.5;
9.00438;0.585062;0.585484;2.69377;2.5;
9.00439;0.583033;0.583485;2.68173;2.5;
9.0044;0.58089;0.58137;2.66894;2.5;
9.00441;0.578639;0.579146;2.65544;2.5;
9.00442;0.576291;0.576822;2.64128;2.5;
9.00443;0.573854;0.574407;2.62652;2.5;
9.00444;0.571338;0.571911;2.61122;2.5;
9.00445;0.568753;0.569344;2.59543;2.5;
9.00446;0.566109;0.566716;2.57923;2.5;
9.00447;0.563417;0.564037;2.56267;2.5;
9.00448;0.560687;0.561318;2.54582;2.5;
9.00449;0.557931;0.55857;2.52876;2.5;
9.0045;0.555159;0.555803;2.51153;2.5;
9.00451;0.552382;0.553029;2.49422;2.5;
9.00452;0.549611;0.550259;2.47689;2.5;
9.00453;0.546858;0.547504;2.45962;2.5;
9.00454;0.544133;0.544774;2.44246;2.5;
9.00455;0.541448;0.542081;2.42549;2.5;
9.00456;0.538812;0.539436;2.40878;2.5;
9.00457;0.536236;0.536848;2.39239;2.5;
9.00458;0.533731;0.534328;2.37639;2.5;
9.00459;0.531305;0.531885;2.36084;2.5;
9.0046;0.52897;0.529531;2.3458;2.5;
9.00461;0.526734;0.527273;2.33134;2.5;
9.00462;0.524606;0.525121;2.3175;2.5;
9.00463;0.522593;0.523083;2.30434;2.5;
9.00464;0.520705;0.521167;2.29192;2.5;
9.00465;0.518948;0.519381;2.28028;2.5;
9.00466;0.517329;0.517731;2.26947;2.5;
9.00467;0.515854;0.516223;2.25954;2.5;
9.00468;0.51453;0.514865;2.25051;2.5;
9.00469;0.513361;0.51366;2.24242;2.5;
9.0047;0.512352;0.512615;2.23531;2.5;
9.00471;0.511506;0.511731;2.22921;2.5;
9.00472;0.510827;0.511014;2.22413;2.5;
9.00473;0.510318;0.510465;2.2201;2.5;
9.00474;0.50998;0.510088;2.21713;2.5;
9.00475;0.509815;0.509882;2.21524;2.5;
9.00476;0.509823;0.50985;2.21442;2.5;
9.00477;0.510004;0.509991;2.21469;2.5;
9.00478;0.510359;0.510305;2.21605;2.5;
9.00479;0.510884;0.51079;2.21848;2.5;
9.0048;0.511579;0.511445;2.22198;2.5;
9.00481;0.51244;0.512267;2.22653;2.5;
9.00482;0.513465;0.513253;2.23213;2.5;
9.00483;0.514649;0.514399;2.23873;2.5;
9.00484;0.515987;0.5157;2.24633;2.5;
9.00485;0.517476;0.517153;2.25489;2.5;
9.00486;0.519108;0.518751;2.26438;2.5;
9.00487;0.520878;0.520487;2.27476;2.5;
9.00488;0.522778;0.522356;2.28598;2.5;
9.00489;0.524802;0.524349;2.29802;2.5;
9.0049;0.526941;0.52646;2.31081;2.5;
9.00491;0.529187;0.52868;2.32432;2.5;
9.00492;0.531531;0.531;2.33847;2.5;
9.00493;0.533964;0.53341;2.35323;2.5;
9.00494;0.536476;0.535903;2.36854;2.5;
9.00495;0.539058;0.538467;2.38432;2.5;
9.00496;0.541699;0.541092;2.40052;2.5;
9.00497;0.544389;0.543769;2.41708;2.5;
9.00498;0.547117;0.546486;2.43393;2.5;
9.00499;0.549872;0.549233;2.451;2.5;
9.005;0.552644;0.551999;2.46822;2.5;
9.00501;0.555421;0.554773;2.48553;2.5;
9.00502;0.558192;0.557544;2.50286;2.5;
9.00503;0.560946;0.5603;2.52013;2.5;
9.00504;0.563673;0.563032;2.53729;2.5;
