time;V(/OUT_N);V(/OUT_SINGLE);
9;0.419227;2.48002;
9.00001;0.421103;2.49173;
9.00002;0.422976;2.50345;
9.00003;0.424837;2.51511;
9.00004;0.426679;2.52667;
9.00005;0.428493;2.53808;
9.00006;0.430273;2.5493;
9.00007;0.432011;2.56028;
9.00008;0.433702;2.57099;
9.00009;0.435337;2.58137;
9.0001;0.436911;2.59138;
9.00011;0.438417;2.601;
9.00012;0.439849;2.61017;
9.00013;0.441202;2.61887;
9.00014;0.44247;2.62705;
9.00015;0.443649;2.63469;
9.00016;0.444734;2.64176;
9.00017;0.44572;2.64823;
9.00018;0.446603;2.65407;
9.00019;0.447381;2.65927;
9.0002;0.448051;2.66379;
9.00021;0.448608;2.66764;
9.00022;0.449052;2.67078;
9.00023;0.449381;2.67321;
9.00024;0.449594;2.67492;
9.00025;0.449689;2.6759;
9.00026;0.449666;2.67615;
9.00027;0.449526;2.67567;
9.00028;0.449269;2.67446;
9.00029;0.448895;2.67252;
9.0003;0.448407;2.66986;
9.00031;0.447806;2.66649;
9.00032;0.447095;2.66243;
9.00033;0.446276;2.65769;
9.00034;0.445353;2.65229;
9.00035;0.444329;2.64624;
9.00036;0.443208;2.63958;
9.00037;0.441994;2.63233;
9.00038;0.440693;2.62451;
9.00039;0.439309;2.61616;
9.0004;0.437848;2.60731;
9.00041;0.436316;2.598;
9.00042;0.434718;2.58825;
9.00043;0.433061;2.57811;
9.00044;0.431352;2.56763;
9.00045;0.429597;2.55683;
9.00046;0.427804;2.54577;
9.00047;0.425979;2.53448;
9.00048;0.424129;2.52302;
9.00049;0.422264;2.51142;
9.0005;0.420389;2.49974;
9.00051;0.418512;2.48802;
9.00052;0.416641;2.4763;
9.00053;0.414782;2.46464;
9.00054;0.412945;2.45309;
9.00055;0.411134;2.44167;
9.00056;0.409359;2.43045;
9.00057;0.407626;2.41947;
9.00058;0.405941;2.40877;
9.00059;0.404312;2.39839;
9.0006;0.402745;2.38837;
9.00061;0.401246;2.37875;
9.00062;0.39982;2.36958;
9.00063;0.398474;2.36089;
9.00064;0.397212;2.3527;
9.00065;0.39604;2.34506;
9.00066;0.394962;2.33799;
9.00067;0.393982;2.33152;
9.00068;0.393103;2.32568;
9.00069;0.39233;2.32048;
9.0007;0.391665;2.31596;
9.00071;0.391111;2.31211;
9.00072;0.39067;2.30897;
9.00073;0.390342;2.30654;
9.00074;0.390131;2.30483;
9.00075;0.390036;2.30385;
9.00076;0.390058;2.3036;
9.00077;0.390197;2.30408;
9.00078;0.390452;2.30529;
9.00079;0.390822;2.30723;
9.0008;0.391306;2.30989;
9.00081;0.391902;2.31325;
9.00082;0.392608;2.31732;
9.00083;0.393421;2.32206;
9.00084;0.394338;2.32746;
9.00085;0.395356;2.3335;
9.00086;0.39647;2.34017;
9.00087;0.397677;2.34742;
9.00088;0.398972;2.35524;
9.00089;0.400349;2.36359;
9.0009;0.401803;2.37244;
9.00091;0.403329;2.38176;
9.00092;0.404921;2.3915;
9.00093;0.406572;2.40164;
9.00094;0.408276;2.41213;
9.00095;0.410027;2.42292;
9.00096;0.411817;2.43399;
9.00097;0.413639;2.44527;
9.00098;0.415486;2.45674;
9.00099;0.417351;2.46833;
9.001;0.419226;2.48002;
9.00101;0.421102;2.49173;
9.00102;0.422975;2.50345;
9.00103;0.424836;2.51511;
9.00104;0.426678;2.52667;
9.00105;0.428492;2.53808;
9.00106;0.430272;2.5493;
9.00107;0.43201;2.56028;
9.00108;0.433701;2.57099;
9.00109;0.435336;2.58137;
9.0011;0.43691;2.59138;
9.00111;0.438416;2.601;
9.00112;0.439848;2.61017;
9.00113;0.441201;2.61887;
9.00114;0.442469;2.62705;
9.00115;0.443648;2.63469;
9.00116;0.444733;2.64176;
9.00117;0.445719;2.64823;
9.00118;0.446602;2.65407;
9.00119;0.44738;2.65927;
9.0012;0.44805;2.66379;
9.00121;0.448607;2.66764;
9.00122;0.449052;2.67078;
9.00123;0.44938;2.67321;
9.00124;0.449593;2.67492;
9.00125;0.449688;2.6759;
9.00126;0.449665;2.67615;
9.00127;0.449525;2.67567;
9.00128;0.449268;2.67446;
9.00129;0.448894;2.67252;
9.0013;0.448406;2.66986;
9.00131;0.447805;2.66649;
9.00132;0.447094;2.66243;
9.00133;0.446275;2.65769;
9.00134;0.445352;2.65229;
9.00135;0.444328;2.64624;
9.00136;0.443207;2.63958;
9.00137;0.441993;2.63233;
9.00138;0.440692;2.62451;
9.00139;0.439308;2.61616;
9.0014;0.437847;2.60731;
9.00141;0.436315;2.598;
9.00142;0.434717;2.58825;
9.00143;0.43306;2.57811;
9.00144;0.431351;2.56763;
9.00145;0.429596;2.55683;
9.00146;0.427803;2.54577;
9.00147;0.425978;2.53448;
9.00148;0.424128;2.52302;
9.00149;0.422263;2.51142;
9.0015;0.420388;2.49974;
9.00151;0.418511;2.48802;
9.00152;0.41664;2.4763;
9.00153;0.414781;2.46464;
9.00154;0.412944;2.45309;
9.00155;0.411133;2.44167;
9.00156;0.409358;2.43045;
9.00157;0.407625;2.41947;
9.00158;0.40594;2.40877;
9.00159;0.404311;2.39839;
9.0016;0.402744;2.38837;
9.00161;0.401245;2.37875;
9.00162;0.399819;2.36958;
9.00163;0.398473;2.36089;
9.00164;0.397211;2.3527;
9.00165;0.396039;2.34506;
9.00166;0.394961;2.33799;
9.00167;0.393981;2.33152;
9.00168;0.393102;2.32568;
9.00169;0.392329;2.32048;
9.0017;0.391664;2.31596;
9.00171;0.39111;2.31211;
9.00172;0.390669;2.30897;
9.00173;0.390341;2.30654;
9.00174;0.39013;2.30483;
9.00175;0.390035;2.30385;
9.00176;0.390057;2.3036;
9.00177;0.390196;2.30408;
9.00178;0.390451;2.30529;
9.00179;0.390821;2.30723;
9.0018;0.391305;2.30989;
9.00181;0.391901;2.31325;
9.00182;0.392607;2.31732;
9.00183;0.39342;2.32206;
9.00184;0.394337;2.32746;
9.00185;0.395355;2.3335;
9.00186;0.396469;2.34017;
9.00187;0.397676;2.34742;
9.00188;0.398971;2.35524;
9.00189;0.400348;2.36359;
9.0019;0.401802;2.37244;
9.00191;0.403328;2.38176;
9.00192;0.40492;2.3915;
9.00193;0.406571;2.40164;
9.00194;0.408275;2.41213;
9.00195;0.410026;2.42292;
9.00196;0.411816;2.43399;
9.00197;0.413638;2.44527;
9.00198;0.415485;2.45674;
9.00199;0.41735;2.46833;
9.002;0.419225;2.48002;
9.00201;0.421101;2.49173;
9.00202;0.422974;2.50345;
9.00203;0.424835;2.51511;
9.00204;0.426677;2.52667;
9.00205;0.428491;2.53808;
9.00206;0.430271;2.5493;
9.00207;0.432009;2.56028;
9.00208;0.4337;2.57099;
9.00209;0.435335;2.58137;
9.0021;0.436909;2.59138;
9.00211;0.438415;2.601;
9.00212;0.439847;2.61017;
9.00213;0.4412;2.61887;
9.00214;0.442468;2.62705;
9.00215;0.443647;2.63469;
9.00216;0.444732;2.64176;
9.00217;0.445718;2.64823;
9.00218;0.446601;2.65407;
9.00219;0.447379;2.65927;
9.0022;0.448049;2.66379;
9.00221;0.448606;2.66764;
9.00222;0.449051;2.67078;
9.00223;0.449379;2.67321;
9.00224;0.449592;2.67492;
9.00225;0.449687;2.6759;
9.00226;0.449664;2.67615;
9.00227;0.449524;2.67567;
9.00228;0.449267;2.67446;
9.00229;0.448893;2.67252;
9.0023;0.448405;2.66986;
9.00231;0.447804;2.66649;
9.00232;0.447093;2.66243;
9.00233;0.446274;2.65769;
9.00234;0.445351;2.65229;
9.00235;0.444327;2.64624;
9.00236;0.443206;2.63958;
9.00237;0.441992;2.63233;
9.00238;0.440691;2.62451;
9.00239;0.439307;2.61616;
9.0024;0.437846;2.60731;
9.00241;0.436314;2.598;
9.00242;0.434716;2.58825;
9.00243;0.433059;2.57811;
9.00244;0.43135;2.56763;
9.00245;0.429595;2.55683;
9.00246;0.427802;2.54577;
9.00247;0.425977;2.53448;
9.00248;0.424127;2.52302;
9.00249;0.422262;2.51142;
9.0025;0.420387;2.49974;
9.00251;0.41851;2.48802;
9.00252;0.416639;2.4763;
9.00253;0.41478;2.46464;
9.00254;0.412943;2.45309;
9.00255;0.411132;2.44167;
9.00256;0.409357;2.43045;
9.00257;0.407624;2.41947;
9.00258;0.405939;2.40877;
9.00259;0.40431;2.39839;
9.0026;0.402743;2.38837;
9.00261;0.401244;2.37875;
9.00262;0.399818;2.36958;
9.00263;0.398472;2.36089;
9.00264;0.39721;2.3527;
9.00265;0.396038;2.34506;
9.00266;0.39496;2.33799;
9.00267;0.39398;2.33152;
9.00268;0.393101;2.32568;
9.00269;0.392328;2.32048;
9.0027;0.391663;2.31596;
9.00271;0.391109;2.31211;
9.00272;0.390668;2.30897;
9.00273;0.39034;2.30654;
9.00274;0.390129;2.30483;
9.00275;0.390034;2.30385;
9.00276;0.390056;2.3036;
9.00277;0.390195;2.30408;
9.00278;0.39045;2.30529;
9.00279;0.39082;2.30723;
9.0028;0.391304;2.30989;
9.00281;0.3919;2.31325;
9.00282;0.392606;2.31732;
9.00283;0.393419;2.32206;
9.00284;0.394336;2.32746;
9.00285;0.395354;2.3335;
9.00286;0.396468;2.34017;
9.00287;0.397675;2.34742;
9.00288;0.39897;2.35524;
9.00289;0.400347;2.36359;
9.0029;0.401801;2.37244;
9.00291;0.403327;2.38176;
9.00292;0.404919;2.3915;
9.00293;0.40657;2.40164;
9.00294;0.408274;2.41213;
9.00295;0.410025;2.42292;
9.00296;0.411815;2.43399;
9.00297;0.413637;2.44527;
9.00298;0.415484;2.45674;
9.00299;0.417349;2.46833;
9.003;0.419224;2.48002;
9.00301;0.4211;2.49173;
9.00302;0.422973;2.50345;
9.00303;0.424834;2.51511;
9.00304;0.426676;2.52667;
9.00305;0.42849;2.53808;
9.00306;0.43027;2.5493;
9.00307;0.432008;2.56028;
9.00308;0.433699;2.57099;
9.00309;0.435334;2.58137;
9.0031;0.436908;2.59138;
9.00311;0.438414;2.601;
9.00312;0.439846;2.61017;
9.00313;0.441199;2.61887;
9.00314;0.442467;2.62705;
9.00315;0.443646;2.63469;
9.00316;0.444731;2.64176;
9.00317;0.445717;2.64823;
9.00318;0.4466;2.65407;
9.00319;0.447378;2.65927;
9.0032;0.448048;2.66379;
9.00321;0.448605;2.66764;
9.00322;0.44905;2.67078;
9.00323;0.449378;2.67321;
9.00324;0.449591;2.67492;
9.00325;0.449686;2.6759;
9.00326;0.449663;2.67615;
9.00327;0.449523;2.67567;
9.00328;0.449266;2.67446;
9.00329;0.448892;2.67252;
9.0033;0.448404;2.66986;
9.00331;0.447803;2.66649;
9.00332;0.447092;2.66243;
9.00333;0.446273;2.65769;
9.00334;0.44535;2.65229;
9.00335;0.444326;2.64624;
9.00336;0.443205;2.63958;
9.00337;0.441991;2.63233;
9.00338;0.44069;2.62451;
9.00339;0.439306;2.61616;
9.0034;0.437845;2.60731;
9.00341;0.436313;2.598;
9.00342;0.434715;2.58825;
9.00343;0.433058;2.57811;
9.00344;0.431349;2.56763;
9.00345;0.429594;2.55683;
9.00346;0.427801;2.54577;
9.00347;0.425976;2.53448;
9.00348;0.424126;2.52302;
9.00349;0.422261;2.51142;
9.0035;0.420386;2.49974;
9.00351;0.418509;2.48802;
9.00352;0.416638;2.4763;
9.00353;0.414779;2.46464;
9.00354;0.412942;2.45309;
9.00355;0.411131;2.44167;
9.00356;0.409356;2.43045;
9.00357;0.407623;2.41947;
9.00358;0.405938;2.40877;
9.00359;0.404309;2.39839;
9.0036;0.402742;2.38837;
9.00361;0.401243;2.37875;
9.00362;0.399817;2.36958;
9.00363;0.398471;2.36089;
9.00364;0.397209;2.3527;
9.00365;0.396037;2.34506;
9.00366;0.394959;2.33799;
9.00367;0.393979;2.33152;
9.00368;0.393101;2.32568;
9.00369;0.392327;2.32048;
9.0037;0.391662;2.31596;
9.00371;0.391108;2.31211;
9.00372;0.390667;2.30897;
9.00373;0.390339;2.30654;
9.00374;0.390128;2.30483;
9.00375;0.390033;2.30385;
9.00376;0.390055;2.3036;
9.00377;0.390194;2.30408;
9.00378;0.390449;2.30529;
9.00379;0.390819;2.30723;
9.0038;0.391303;2.30989;
9.00381;0.391899;2.31325;
9.00382;0.392605;2.31732;
9.00383;0.393418;2.32206;
9.00384;0.394335;2.32746;
9.00385;0.395353;2.3335;
9.00386;0.396468;2.34017;
9.00387;0.397674;2.34742;
9.00388;0.398969;2.35524;
9.00389;0.400346;2.36359;
9.0039;0.4018;2.37244;
9.00391;0.403326;2.38176;
9.00392;0.404918;2.3915;
9.00393;0.406569;2.40164;
9.00394;0.408273;2.41213;
9.00395;0.410024;2.42292;
9.00396;0.411814;2.43399;
9.00397;0.413636;2.44527;
9.00398;0.415483;2.45674;
9.00399;0.417348;2.46833;
9.004;0.419223;2.48002;
9.00401;0.421099;2.49173;
9.00402;0.422972;2.50345;
9.00403;0.424833;2.51511;
9.00404;0.426675;2.52667;
9.00405;0.428489;2.53808;
9.00406;0.430269;2.5493;
9.00407;0.432007;2.56028;
9.00408;0.433698;2.57099;
9.00409;0.435333;2.58137;
9.0041;0.436907;2.59138;
9.00411;0.438413;2.601;
9.00412;0.439845;2.61017;
9.00413;0.441198;2.61887;
9.00414;0.442466;2.62705;
9.00415;0.443645;2.63469;
9.00416;0.44473;2.64176;
9.00417;0.445716;2.64823;
9.00418;0.446599;2.65407;
9.00419;0.447377;2.65927;
9.0042;0.448047;2.66379;
9.00421;0.448604;2.66764;
9.00422;0.449049;2.67078;
9.00423;0.449377;2.67321;
9.00424;0.44959;2.67492;
9.00425;0.449685;2.6759;
9.00426;0.449662;2.67615;
9.00427;0.449522;2.67567;
9.00428;0.449265;2.67446;
9.00429;0.448891;2.67252;
9.0043;0.448403;2.66986;
9.00431;0.447802;2.66649;
9.00432;0.447091;2.66243;
9.00433;0.446272;2.65769;
9.00434;0.445349;2.65229;
9.00435;0.444325;2.64624;
9.00436;0.443204;2.63958;
9.00437;0.44199;2.63233;
9.00438;0.440689;2.62451;
9.00439;0.439305;2.61616;
9.0044;0.437844;2.60731;
9.00441;0.436312;2.598;
9.00442;0.434714;2.58825;
9.00443;0.433057;2.57811;
9.00444;0.431348;2.56763;
9.00445;0.429593;2.55683;
9.00446;0.4278;2.54577;
9.00447;0.425975;2.53448;
9.00448;0.424125;2.52302;
9.00449;0.42226;2.51142;
9.0045;0.420385;2.49974;
9.00451;0.418508;2.48802;
9.00452;0.416637;2.4763;
9.00453;0.414778;2.46464;
9.00454;0.412941;2.45309;
9.00455;0.41113;2.44167;
9.00456;0.409355;2.43045;
9.00457;0.407622;2.41947;
9.00458;0.405937;2.40877;
9.00459;0.404308;2.39839;
9.0046;0.402741;2.38837;
9.00461;0.401242;2.37875;
9.00462;0.399816;2.36958;
9.00463;0.39847;2.36089;
9.00464;0.397208;2.3527;
9.00465;0.396036;2.34506;
9.00466;0.394958;2.33799;
9.00467;0.393978;2.33152;
9.00468;0.3931;2.32568;
9.00469;0.392326;2.32048;
9.0047;0.391661;2.31596;
9.00471;0.391107;2.31211;
9.00472;0.390666;2.30897;
9.00473;0.390338;2.30654;
9.00474;0.390127;2.30483;
9.00475;0.390032;2.30385;
9.00476;0.390054;2.3036;
9.00477;0.390193;2.30408;
9.00478;0.390448;2.30529;
9.00479;0.390818;2.30723;
9.0048;0.391302;2.30989;
9.00481;0.391898;2.31325;
9.00482;0.392604;2.31732;
9.00483;0.393417;2.32206;
9.00484;0.394334;2.32746;
9.00485;0.395352;2.3335;
9.00486;0.396467;2.34017;
9.00487;0.397673;2.34742;
9.00488;0.398968;2.35524;
9.00489;0.400345;2.36359;
9.0049;0.401799;2.37244;
9.00491;0.403325;2.38176;
9.00492;0.404917;2.3915;
9.00493;0.406568;2.40164;
9.00494;0.408272;2.41213;
9.00495;0.410023;2.42292;
9.00496;0.411813;2.43399;
9.00497;0.413635;2.44527;
9.00498;0.415482;2.45674;
9.00499;0.417347;2.46833;
9.005;0.419222;2.48002;
9.00501;0.421098;2.49173;
9.00502;0.422971;2.50345;
9.00503;0.424832;2.51511;
9.00504;0.426674;2.52667;
9.00505;0.428488;2.53808;
9.00506;0.430268;2.5493;
9.00507;0.432006;2.56028;
9.00508;0.433697;2.57099;
9.00509;0.435332;2.58137;
9.0051;0.436906;2.59138;
9.00511;0.438412;2.601;
9.00512;0.439844;2.61017;
9.00513;0.441197;2.61887;
9.00514;0.442465;2.62705;
9.00515;0.443644;2.63469;
9.00516;0.444729;2.64176;
9.00517;0.445715;2.64823;
9.00518;0.446598;2.65407;
9.00519;0.447376;2.65927;
9.0052;0.448046;2.66379;
9.00521;0.448603;2.66764;
9.00522;0.449048;2.67078;
9.00523;0.449376;2.67321;
9.00524;0.449589;2.67492;
9.00525;0.449684;2.6759;
9.00526;0.449661;2.67615;
9.00527;0.449521;2.67567;
9.00528;0.449264;2.67446;
9.00529;0.44889;2.67252;
9.0053;0.448402;2.66986;
9.00531;0.447801;2.66649;
9.00532;0.44709;2.66243;
9.00533;0.446271;2.65769;
9.00534;0.445348;2.65229;
9.00535;0.444324;2.64624;
9.00536;0.443203;2.63958;
9.00537;0.441989;2.63233;
9.00538;0.440688;2.62451;
9.00539;0.439304;2.61616;
9.0054;0.437843;2.60731;
9.00541;0.436311;2.598;
9.00542;0.434713;2.58825;
9.00543;0.433056;2.57811;
9.00544;0.431347;2.56763;
9.00545;0.429592;2.55683;
9.00546;0.427799;2.54577;
9.00547;0.425974;2.53448;
9.00548;0.424124;2.52302;
9.00549;0.422259;2.51142;
9.0055;0.420384;2.49974;
9.00551;0.418507;2.48802;
9.00552;0.416636;2.4763;
9.00553;0.414778;2.46464;
9.00554;0.41294;2.45309;
9.00555;0.411129;2.44167;
9.00556;0.409354;2.43045;
9.00557;0.407621;2.41947;
9.00558;0.405936;2.40877;
9.00559;0.404307;2.39839;
9.0056;0.40274;2.38837;
9.00561;0.401241;2.37875;
9.00562;0.399815;2.36958;
9.00563;0.398469;2.36089;
9.00564;0.397207;2.3527;
9.00565;0.396035;2.34506;
9.00566;0.394957;2.33799;
9.00567;0.393977;2.33152;
9.00568;0.393099;2.32568;
9.00569;0.392325;2.32048;
9.0057;0.39166;2.31596;
9.00571;0.391106;2.31211;
9.00572;0.390665;2.30897;
9.00573;0.390338;2.30654;
9.00574;0.390126;2.30483;
9.00575;0.390031;2.30385;
9.00576;0.390053;2.3036;
9.00577;0.390192;2.30408;
9.00578;0.390447;2.30529;
9.00579;0.390817;2.30723;
9.0058;0.391301;2.30989;
9.00581;0.391897;2.31325;
9.00582;0.392603;2.31732;
9.00583;0.393416;2.32206;
9.00584;0.394334;2.32746;
9.00585;0.395351;2.3335;
9.00586;0.396466;2.34017;
9.00587;0.397672;2.34742;
9.00588;0.398967;2.35524;
9.00589;0.400344;2.36359;
9.0059;0.401798;2.37244;
9.00591;0.403324;2.38176;
9.00592;0.404916;2.3915;
9.00593;0.406567;2.40164;
9.00594;0.408271;2.41213;
9.00595;0.410022;2.42292;
9.00596;0.411812;2.43399;
9.00597;0.413634;2.44527;
9.00598;0.415481;2.45674;
9.00599;0.417346;2.46833;
9.006;0.419221;2.48002;
9.00601;0.421097;2.49173;
9.00602;0.42297;2.50345;
9.00603;0.424831;2.51511;
9.00604;0.426673;2.52667;
9.00605;0.428487;2.53808;
9.00606;0.430267;2.5493;
9.00607;0.432005;2.56028;
9.00608;0.433696;2.57099;
9.00609;0.435331;2.58137;
9.0061;0.436905;2.59138;
9.00611;0.438411;2.601;
9.00612;0.439843;2.61017;
9.00613;0.441196;2.61887;
9.00614;0.442464;2.62705;
9.00615;0.443643;2.63469;
9.00616;0.444728;2.64176;
9.00617;0.445714;2.64823;
9.00618;0.446597;2.65407;
9.00619;0.447375;2.65927;
9.0062;0.448045;2.66379;
9.00621;0.448602;2.66764;
9.00622;0.449047;2.67078;
9.00623;0.449376;2.67321;
9.00624;0.449588;2.67492;
9.00625;0.449683;2.6759;
9.00626;0.44966;2.67615;
9.00627;0.44952;2.67567;
9.00628;0.449263;2.67446;
9.00629;0.448889;2.67252;
9.0063;0.448401;2.66986;
9.00631;0.4478;2.66649;
9.00632;0.447089;2.66243;
9.00633;0.44627;2.65769;
9.00634;0.445347;2.65229;
9.00635;0.444323;2.64624;
9.00636;0.443202;2.63958;
9.00637;0.441988;2.63233;
9.00638;0.440687;2.62451;
9.00639;0.439303;2.61616;
9.0064;0.437842;2.60731;
9.00641;0.43631;2.598;
9.00642;0.434712;2.58825;
9.00643;0.433055;2.57811;
9.00644;0.431346;2.56763;
9.00645;0.429591;2.55683;
9.00646;0.427798;2.54577;
9.00647;0.425973;2.53448;
9.00648;0.424123;2.52302;
9.00649;0.422258;2.51142;
9.0065;0.420383;2.49974;
9.00651;0.418506;2.48802;
9.00652;0.416635;2.4763;
9.00653;0.414777;2.46464;
9.00654;0.412939;2.45309;
9.00655;0.411128;2.44167;
9.00656;0.409353;2.43045;
9.00657;0.40762;2.41947;
9.00658;0.405935;2.40877;
9.00659;0.404306;2.39839;
9.0066;0.402739;2.38837;
9.00661;0.40124;2.37875;
9.00662;0.399814;2.36958;
9.00663;0.398468;2.36089;
9.00664;0.397206;2.3527;
9.00665;0.396034;2.34506;
9.00666;0.394956;2.33799;
9.00667;0.393976;2.33152;
9.00668;0.393098;2.32568;
9.00669;0.392324;2.32048;
9.0067;0.391659;2.31596;
9.00671;0.391105;2.31211;
9.00672;0.390664;2.30897;
9.00673;0.390337;2.30654;
9.00674;0.390125;2.30483;
9.00675;0.39003;2.30385;
9.00676;0.390052;2.3036;
9.00677;0.390191;2.30408;
9.00678;0.390446;2.30529;
9.00679;0.390816;2.30723;
9.0068;0.3913;2.30989;
9.00681;0.391896;2.31325;
9.00682;0.392602;2.31732;
9.00683;0.393415;2.32206;
9.00684;0.394333;2.32746;
9.00685;0.39535;2.3335;
9.00686;0.396465;2.34017;
9.00687;0.397671;2.34742;
9.00688;0.398966;2.35524;
9.00689;0.400343;2.36359;
9.0069;0.401797;2.37244;
9.00691;0.403323;2.38176;
9.00692;0.404915;2.3915;
9.00693;0.406566;2.40164;
9.00694;0.40827;2.41213;
9.00695;0.410021;2.42292;
9.00696;0.411811;2.43399;
9.00697;0.413633;2.44527;
9.00698;0.41548;2.45674;
9.00699;0.417345;2.46833;
9.007;0.41922;2.48002;
9.00701;0.421096;2.49173;
9.00702;0.422969;2.50345;
9.00703;0.42483;2.51511;
9.00704;0.426672;2.52667;
9.00705;0.428486;2.53808;
9.00706;0.430266;2.5493;
9.00707;0.432004;2.56028;
9.00708;0.433695;2.57099;
9.00709;0.43533;2.58137;
9.0071;0.436904;2.59138;
9.00711;0.43841;2.601;
9.00712;0.439842;2.61017;
9.00713;0.441195;2.61887;
9.00714;0.442463;2.62705;
9.00715;0.443642;2.63469;
9.00716;0.444727;2.64176;
9.00717;0.445713;2.64823;
9.00718;0.446596;2.65407;
9.00719;0.447374;2.65927;
9.0072;0.448044;2.66379;
9.00721;0.448601;2.66764;
9.00722;0.449046;2.67078;
9.00723;0.449375;2.67321;
9.00724;0.449587;2.67492;
9.00725;0.449682;2.6759;
9.00726;0.449659;2.67615;
9.00727;0.449519;2.67567;
9.00728;0.449262;2.67446;
9.00729;0.448888;2.67252;
9.0073;0.4484;2.66986;
9.00731;0.4478;2.66649;
9.00732;0.447088;2.66243;
9.00733;0.446269;2.65769;
9.00734;0.445346;2.65229;
9.00735;0.444322;2.64624;
9.00736;0.443201;2.63958;
9.00737;0.441987;2.63233;
9.00738;0.440686;2.62451;
9.00739;0.439302;2.61616;
9.0074;0.437841;2.60731;
9.00741;0.436309;2.598;
9.00742;0.434711;2.58825;
9.00743;0.433054;2.57811;
9.00744;0.431345;2.56763;
9.00745;0.42959;2.55683;
9.00746;0.427797;2.54577;
9.00747;0.425972;2.53448;
9.00748;0.424122;2.52302;
