time;V(/OUT_N);V(/OUT_SINGLE);user1;
0.200007;1.25718;2.39441;-0.00673378;
0.200017;1.26107;2.43812;-0.00674444;
0.200027;1.26495;2.48196;-0.0067484;
0.200037;1.26879;2.52574;-0.00674564;
0.200047;1.27258;2.56929;-0.00673618;
0.200057;1.2763;2.61245;-0.00672004;
0.200067;1.27994;2.65504;-0.0066973;
0.200077;1.28349;2.6969;-0.00666805;
0.200087;1.28693;2.73785;-0.00663241;
0.200097;1.29025;2.77774;-0.0065905;
0.200107;1.29343;2.81641;-0.00654252;
0.200117;1.29646;2.8537;-0.00648863;
0.200127;1.29934;2.88947;-0.00642907;
0.200137;1.30204;2.92358;-0.00636407;
0.200147;1.30456;2.95589;-0.00629388;
0.200157;1.30689;2.98628;-0.00621879;
0.200167;1.30901;3.01463;-0.00613908;
0.200177;1.31093;3.04082;-0.00605509;
0.200187;1.31263;3.06475;-0.00596713;
0.200197;1.31411;3.08633;-0.00587556;
0.200207;1.31535;3.10547;-0.00578074;
0.200217;1.31636;3.1221;-0.00568304;
0.200227;1.31714;3.13615;-0.00558284;
0.200237;1.31767;3.14757;-0.00548055;
0.200247;1.31796;3.15631;-0.00537655;
0.200257;1.318;3.16234;-0.00527126;
0.200267;1.3178;3.16564;-0.00516509;
0.200277;1.31735;3.16618;-0.00505846;
0.200287;1.31666;3.16398;-0.00495178;
0.200297;1.31574;3.15903;-0.00484548;
0.200307;1.31457;3.15136;-0.00473997;
0.200317;1.31318;3.141;-0.00463566;
0.200327;1.31155;3.12798;-0.00453296;
0.200337;1.30971;3.11237;-0.00443228;
0.200347;1.30766;3.09421;-0.00433401;
0.200357;1.3054;3.07359;-0.00423854;
0.200367;1.30295;3.05058;-0.00414624;
0.200377;1.30031;3.02527;-0.00405749;
0.200387;1.29749;2.99777;-0.00397262;
0.200397;1.29452;2.96817;-0.00389198;
0.200407;1.29138;2.93661;-0.00381588;
0.200417;1.28811;2.90319;-0.00374463;
0.200427;1.28471;2.86806;-0.00367851;
0.200437;1.2812;2.83135;-0.00361779;
0.200447;1.27759;2.79321;-0.00356269;
0.200457;1.27389;2.75379;-0.00351345;
0.200467;1.27012;2.71324;-0.00347027;
0.200477;1.2663;2.67173;-0.0034333;
0.200487;1.26243;2.62941;-0.00340271;
0.200497;1.25854;2.58645;-0.00337861;
0.200507;1.25464;2.54303;-0.00336109;
0.200517;1.25074;2.49932;-0.00335024;
0.200527;1.24686;2.45549;-0.00334608;
0.200537;1.24302;2.4117;-0.00334865;
0.200547;1.23923;2.36815;-0.00335792;
0.200557;1.2355;2.32499;-0.00337386;
0.200567;1.23186;2.2824;-0.00339641;
0.200577;1.22831;2.24054;-0.00342546;
0.200587;1.22487;2.19959;-0.00346092;
0.200597;1.22156;2.1597;-0.00350263;
0.200607;1.21838;2.12104;-0.00355042;
0.200617;1.21534;2.08375;-0.00360411;
0.200627;1.21247;2.04797;-0.00366348;
0.200637;1.20977;2.01386;-0.00372829;
0.200647;1.20725;1.98155;-0.00379829;
0.200657;1.20492;1.95116;-0.00387319;
0.200667;1.2028;1.92282;-0.0039527;
0.200677;1.20088;1.89663;-0.0040365;
0.200687;1.19918;1.8727;-0.00412427;
0.200697;1.1977;1.85112;-0.00421564;
0.200707;1.19646;1.83197;-0.00431027;
0.200717;1.19544;1.81534;-0.00440778;
0.200727;1.19467;1.80129;-0.00450779;
0.200737;1.19414;1.78987;-0.00460989;
0.200747;1.19385;1.78113;-0.0047137;
0.200757;1.1938;1.7751;-0.0048188;
0.200767;1.194;1.77181;-0.00492478;
0.200777;1.19445;1.77126;-0.00503122;
0.200787;1.19513;1.77347;-0.00513771;
0.200797;1.19606;1.77842;-0.00524382;
0.200807;1.19722;1.78609;-0.00534914;
0.200817;1.19861;1.79645;-0.00545326;
0.200827;1.20023;1.80947;-0.00555577;
0.200837;1.20206;1.82509;-0.00565626;
0.200847;1.20411;1.84324;-0.00575434;
0.200857;1.20637;1.86387;-0.00584962;
0.200867;1.20882;1.88688;-0.00594172;
0.200877;1.21145;1.91219;-0.00603029;
0.200887;1.21426;1.93969;-0.00611496;
0.200897;1.21724;1.96929;-0.00619541;
0.200907;1.22037;2.00085;-0.00627131;
0.200917;1.22363;2.03427;-0.00634237;
0.200927;1.22703;2.0694;-0.0064083;
0.200937;1.23054;2.10611;-0.00646883;
0.200947;1.23415;2.14425;-0.00652373;
0.200957;1.23784;2.18367;-0.00657277;
0.200967;1.24161;2.22422;-0.00661577;
0.200977;1.24543;2.26574;-0.00665254;
0.200987;1.24929;2.30806;-0.00668294;
0.200997;1.25318;2.35101;-0.00670685;
0.201007;1.25708;2.39443;-0.00672417;
0.201017;1.26098;2.43815;-0.00673483;
0.201027;1.26486;2.48198;-0.00673879;
0.201037;1.2687;2.52576;-0.00673603;
0.201047;1.27249;2.56932;-0.00672657;
0.201057;1.27621;2.61248;-0.00671043;
0.201067;1.27985;2.65507;-0.00668769;
0.201077;1.2834;2.69692;-0.00665844;
0.201087;1.28684;2.73788;-0.00662279;
0.201097;1.29016;2.77776;-0.00658089;
0.201107;1.29334;2.81643;-0.00653291;
0.201117;1.29637;2.85372;-0.00647902;
0.201127;1.29925;2.8895;-0.00641946;
0.201137;1.30195;2.92361;-0.00635446;
0.201147;1.30447;2.95592;-0.00628427;
0.201157;1.30679;2.98631;-0.00620917;
0.201167;1.30892;3.01465;-0.00612947;
0.201177;1.31084;3.04084;-0.00604548;
0.201187;1.31254;3.06477;-0.00595752;
0.201197;1.31401;3.08635;-0.00586595;
0.201207;1.31526;3.1055;-0.00577113;
0.201217;1.31627;3.12213;-0.00567343;
0.201227;1.31704;3.13618;-0.00557323;
0.201237;1.31758;3.1476;-0.00547094;
0.201247;1.31786;3.15634;-0.00536694;
0.201257;1.31791;3.16237;-0.00526165;
0.201267;1.31771;3.16566;-0.00515548;
0.201277;1.31726;3.16621;-0.00504885;
0.201287;1.31657;3.164;-0.00494217;
0.201297;1.31564;3.15906;-0.00483587;
0.201307;1.31448;3.15139;-0.00473036;
0.201317;1.31308;3.14102;-0.00462605;
0.201327;1.31146;3.12801;-0.00452335;
0.201337;1.30962;3.11239;-0.00442267;
0.201347;1.30757;3.09424;-0.0043244;
0.201357;1.30531;3.07361;-0.00422893;
0.201367;1.30286;3.0506;-0.00413663;
0.201377;1.30022;3.0253;-0.00404788;
0.201387;1.2974;2.99779;-0.00396301;
0.201397;1.29442;2.9682;-0.00388237;
0.201407;1.29129;2.93663;-0.00380627;
0.201417;1.28802;2.90322;-0.00373502;
0.201427;1.28462;2.86809;-0.0036689;
0.201437;1.28111;2.83138;-0.00360818;
0.201447;1.2775;2.79324;-0.00355308;
0.201457;1.2738;2.75382;-0.00350385;
0.201467;1.27003;2.71327;-0.00346066;
0.201477;1.2662;2.67175;-0.00342369;
0.201487;1.26234;2.62943;-0.0033931;
0.201497;1.25845;2.58648;-0.003369;
0.201507;1.25454;2.54306;-0.00335149;
0.201517;1.25064;2.49935;-0.00334063;
0.201527;1.24677;2.45551;-0.00333648;
0.201537;1.24293;2.41173;-0.00333904;
0.201547;1.23914;2.36817;-0.00334831;
0.201557;1.23541;2.32501;-0.00336425;
0.201567;1.23177;2.28242;-0.0033868;
0.201577;1.22822;2.24057;-0.00341586;
0.201587;1.22478;2.19962;-0.00345131;
0.201597;1.22146;2.15973;-0.00349302;
0.201607;1.21828;2.12106;-0.00354081;
0.201617;1.21525;2.08377;-0.0035945;
0.201627;1.21238;2.048;-0.00365387;
0.201637;1.20968;2.01389;-0.00371868;
0.201647;1.20716;1.98158;-0.00378868;
0.201657;1.20483;1.95119;-0.00386358;
0.201667;1.2027;1.92284;-0.00394309;
0.201677;1.20079;1.89665;-0.0040269;
0.201687;1.19909;1.87272;-0.00411466;
0.201697;1.19761;1.85114;-0.00420604;
0.201707;1.19636;1.832;-0.00430067;
0.201717;1.19535;1.81537;-0.00439818;
0.201727;1.19458;1.80132;-0.00449818;
0.201737;1.19404;1.7899;-0.00460029;
0.201747;1.19375;1.78116;-0.0047041;
0.201757;1.19371;1.77513;-0.0048092;
0.201767;1.19391;1.77184;-0.00491517;
0.201777;1.19435;1.77129;-0.00502162;
0.201787;1.19504;1.7735;-0.0051281;
0.201797;1.19596;1.77844;-0.00523421;
0.201807;1.19712;1.78612;-0.00533954;
0.201817;1.19852;1.79648;-0.00544366;
0.201827;1.20013;1.80949;-0.00554617;
0.201837;1.20197;1.82511;-0.00564666;
0.201847;1.20402;1.84327;-0.00574473;
0.201857;1.20628;1.86389;-0.00584001;
0.201867;1.20873;1.8869;-0.00593212;
0.201877;1.21136;1.91221;-0.00602068;
0.201887;1.21417;1.93972;-0.00610536;
0.201897;1.21715;1.96931;-0.00618581;
0.201907;1.22027;2.00088;-0.00626171;
0.201917;1.22354;2.03429;-0.00633277;
0.201927;1.22694;2.06942;-0.00639869;
0.201937;1.23044;2.10613;-0.00645923;
0.201947;1.23405;2.14427;-0.00651413;
0.201957;1.23775;2.1837;-0.00656317;
0.201967;1.24151;2.22425;-0.00660617;
0.201977;1.24534;2.26576;-0.00664294;
0.201987;1.2492;2.30808;-0.00667334;
0.201997;1.25309;2.35104;-0.00669725;
0.202007;1.25699;2.39446;-0.00671457;
0.202017;1.26089;2.43817;-0.00672523;
0.202027;1.26476;2.48201;-0.00672919;
0.202037;1.2686;2.52579;-0.00672643;
0.202047;1.27239;2.56935;-0.00671696;
0.202057;1.27612;2.6125;-0.00670083;
0.202067;1.27976;2.6551;-0.00667809;
0.202077;1.28331;2.69695;-0.00664884;
0.202087;1.28675;2.7379;-0.00661319;
0.202097;1.29006;2.77779;-0.00657129;
0.202107;1.29325;2.81646;-0.00652331;
0.202117;1.29628;2.85375;-0.00646942;
0.202127;1.29915;2.88952;-0.00640986;
0.202137;1.30185;2.92363;-0.00634486;
0.202147;1.30437;2.95594;-0.00627467;
0.202157;1.3067;2.98633;-0.00619957;
0.202167;1.30883;3.01468;-0.00611987;
0.202177;1.31074;3.04087;-0.00603588;
0.202187;1.31244;3.0648;-0.00594792;
0.202197;1.31392;3.08638;-0.00585635;
0.202207;1.31517;3.10552;-0.00576153;
0.202217;1.31618;3.12215;-0.00566383;
0.202227;1.31695;3.1362;-0.00556364;
0.202237;1.31748;3.14762;-0.00546134;
0.202247;1.31777;3.15637;-0.00535734;
0.202257;1.31781;3.1624;-0.00525205;
0.202267;1.31761;3.16569;-0.00514588;
0.202277;1.31717;3.16623;-0.00503925;
0.202287;1.31648;3.16403;-0.00493258;
0.202297;1.31555;3.15908;-0.00482627;
0.202307;1.31439;3.15141;-0.00472076;
0.202317;1.31299;3.14105;-0.00461645;
0.202327;1.31137;3.12803;-0.00451375;
0.202337;1.30953;3.11242;-0.00441307;
0.202347;1.30747;3.09426;-0.0043148;
0.202357;1.30522;3.07364;-0.00421933;
0.202367;1.30276;3.05063;-0.00412704;
0.202377;1.30012;3.02532;-0.00403828;
0.202387;1.29731;2.99782;-0.00395341;
0.202397;1.29433;2.96822;-0.00387277;
0.202407;1.2912;2.93666;-0.00379668;
0.202417;1.28793;2.90324;-0.00372543;
0.202427;1.28453;2.86811;-0.00365931;
0.202437;1.28102;2.83141;-0.00359858;
0.202447;1.2774;2.79327;-0.00354349;
0.202457;1.27371;2.75384;-0.00349425;
0.202467;1.26994;2.71329;-0.00345106;
0.202477;1.26611;2.67178;-0.0034141;
0.202487;1.26224;2.62946;-0.0033835;
0.202497;1.25835;2.5865;-0.0033594;
0.202507;1.25445;2.54308;-0.00334189;
0.202517;1.25055;2.49937;-0.00333104;
0.202527;1.24668;2.45554;-0.00332688;
0.202537;1.24283;2.41175;-0.00332945;
0.202547;1.23904;2.3682;-0.00333872;
0.202557;1.23532;2.32504;-0.00335466;
0.202567;1.23168;2.28245;-0.00337721;
0.202577;1.22813;2.2406;-0.00340626;
0.202587;1.22469;2.19964;-0.00344172;
0.202597;1.22137;2.15976;-0.00348343;
0.202607;1.21819;2.12109;-0.00353122;
0.202617;1.21516;2.0838;-0.00358491;
0.202627;1.21228;2.04803;-0.00364428;
0.202637;1.20958;2.01392;-0.00370909;
0.202647;1.20706;1.9816;-0.00377909;
0.202657;1.20474;1.95121;-0.00385399;
0.202667;1.20261;1.92287;-0.0039335;
0.202677;1.20069;1.89668;-0.0040173;
0.202687;1.19899;1.87275;-0.00410507;
0.202697;1.19752;1.85117;-0.00419645;
0.202707;1.19627;1.83203;-0.00429108;
0.202717;1.19526;1.8154;-0.00438859;
0.202727;1.19448;1.80134;-0.00448859;
0.202737;1.19395;1.78993;-0.0045907;
0.202747;1.19366;1.78118;-0.0046945;
0.202757;1.19362;1.77515;-0.0047996;
0.202767;1.19382;1.77186;-0.00490558;
0.202777;1.19426;1.77132;-0.00501202;
0.202787;1.19495;1.77352;-0.00511851;
0.202797;1.19587;1.77847;-0.00522462;
0.202807;1.19703;1.78614;-0.00532995;
0.202817;1.19842;1.79651;-0.00543407;
0.202827;1.20004;1.80952;-0.00553657;
0.202837;1.20188;1.82514;-0.00563706;
0.202847;1.20393;1.84329;-0.00573514;
0.202857;1.20618;1.86392;-0.00583042;
0.202867;1.20863;1.88693;-0.00592253;
0.202877;1.21127;1.91224;-0.00601109;
0.202887;1.21408;1.93974;-0.00609577;
0.202897;1.21705;1.96934;-0.00617622;
0.202907;1.22018;2.0009;-0.00625212;
0.202917;1.22345;2.03432;-0.00632318;
0.202927;1.22684;2.06945;-0.0063891;
0.202937;1.23035;2.10616;-0.00644964;
0.202947;1.23396;2.1443;-0.00650454;
0.202957;1.23766;2.18372;-0.00655358;
0.202967;1.24142;2.22427;-0.00659658;
0.202977;1.24524;2.26579;-0.00663335;
0.202987;1.24911;2.30811;-0.00666375;
0.202997;1.253;2.35106;-0.00668766;
0.203007;1.2569;2.39448;-0.00670498;
0.203017;1.2608;2.4382;-0.00671564;
0.203027;1.26467;2.48203;-0.0067196;
0.203037;1.26851;2.52581;-0.00671684;
0.203047;1.2723;2.56937;-0.00670738;
0.203057;1.27602;2.61253;-0.00669124;
0.203067;1.27967;2.65512;-0.0066685;
0.203077;1.28322;2.69698;-0.00663925;
0.203087;1.28666;2.73793;-0.00660361;
0.203097;1.28997;2.77782;-0.0065617;
0.203107;1.29315;2.81648;-0.00651372;
0.203117;1.29619;2.85378;-0.00645984;
0.203127;1.29906;2.88955;-0.00640027;
0.203137;1.30176;2.92366;-0.00633527;
0.203147;1.30428;2.95597;-0.00626508;
0.203157;1.30661;2.98636;-0.00618999;
0.203167;1.30874;3.0147;-0.00611029;
0.203177;1.31065;3.04089;-0.00602629;
0.203187;1.31235;3.06483;-0.00593834;
0.203197;1.31383;3.08641;-0.00584677;
0.203207;1.31507;3.10555;-0.00575195;
0.203217;1.31609;3.12218;-0.00565424;
0.203227;1.31686;3.13623;-0.00555405;
0.203237;1.31739;3.14765;-0.00545175;
0.203247;1.31768;3.15639;-0.00534776;
0.203257;1.31772;3.16242;-0.00524247;
0.203267;1.31752;3.16572;-0.0051363;
0.203277;1.31707;3.16626;-0.00502967;
0.203287;1.31639;3.16406;-0.00492299;
0.203297;1.31546;3.15911;-0.00481669;
0.203307;1.31429;3.15144;-0.00471117;
0.203317;1.3129;3.14107;-0.00460686;
0.203327;1.31128;3.12806;-0.00450417;
0.203337;1.30944;3.11244;-0.00440349;
0.203347;1.30738;3.09429;-0.00430522;
0.203357;1.30512;3.07366;-0.00420975;
0.203367;1.30267;3.05065;-0.00411745;
0.203377;1.30003;3.02535;-0.00402869;
0.203387;1.29722;2.99784;-0.00394383;
0.203397;1.29424;2.96825;-0.00386319;
0.203407;1.29111;2.93668;-0.00378709;
0.203417;1.28784;2.90327;-0.00371584;
0.203427;1.28444;2.86814;-0.00364972;
0.203437;1.28092;2.83143;-0.003589;
0.203447;1.27731;2.79329;-0.0035339;
0.203457;1.27361;2.75387;-0.00348467;
0.203467;1.26984;2.71332;-0.00344148;
0.203477;1.26602;2.6718;-0.00340451;
0.203487;1.26215;2.62948;-0.00337392;
0.203497;1.25826;2.58653;-0.00334982;
0.203507;1.25436;2.54311;-0.00333231;
0.203517;1.25046;2.4994;-0.00332145;
0.203527;1.24658;2.45556;-0.0033173;
0.203537;1.24274;2.41178;-0.00331986;
0.203547;1.23895;2.36822;-0.00332914;
0.203557;1.23523;2.32507;-0.00334508;
0.203567;1.23158;2.28248;-0.00336762;
0.203577;1.22804;2.24062;-0.00339668;
0.203587;1.2246;2.19967;-0.00343213;
0.203597;1.22128;2.15978;-0.00347384;
0.203607;1.2181;2.12112;-0.00352164;
0.203617;1.21506;2.08382;-0.00357533;
0.203627;1.21219;2.04805;-0.0036347;
0.203637;1.20949;2.01394;-0.00369951;
0.203647;1.20697;1.98163;-0.00376951;
0.203657;1.20464;1.95124;-0.00384441;
0.203667;1.20252;1.9229;-0.00392392;
0.203677;1.2006;1.89671;-0.00400772;
0.203687;1.1989;1.87277;-0.00409549;
0.203697;1.19743;1.85119;-0.00418686;
0.203707;1.19618;1.83205;-0.0042815;
0.203717;1.19517;1.81542;-0.00437901;
0.203727;1.19439;1.80137;-0.00447901;
0.203737;1.19386;1.78995;-0.00458112;
0.203747;1.19357;1.78121;-0.00468492;
0.203757;1.19352;1.77518;-0.00479002;
0.203767;1.19372;1.77189;-0.004896;
0.203777;1.19417;1.77134;-0.00500244;
0.203787;1.19485;1.77355;-0.00510893;
0.203797;1.19578;1.7785;-0.00521504;
0.203807;1.19694;1.78617;-0.00532037;
0.203817;1.19833;1.79653;-0.00542449;
0.203827;1.19995;1.80955;-0.00552699;
0.203837;1.20179;1.82516;-0.00562749;
0.203847;1.20384;1.84332;-0.00572556;
0.203857;1.20609;1.86394;-0.00582084;
0.203867;1.20854;1.88696;-0.00591295;
0.203877;1.21118;1.91226;-0.00600151;
0.203887;1.21399;1.93977;-0.00608619;
0.203897;1.21696;1.96936;-0.00616664;
0.203907;1.22009;2.00093;-0.00624254;
0.203917;1.22336;2.03434;-0.0063136;
0.203927;1.22675;2.06947;-0.00637953;
0.203937;1.23026;2.10618;-0.00644006;
0.203947;1.23387;2.14432;-0.00649496;
0.203957;1.23756;2.18375;-0.00654401;
0.203967;1.24133;2.2243;-0.006587;
0.203977;1.24515;2.26582;-0.00662377;
0.203987;1.24902;2.30813;-0.00665417;
0.203997;1.25291;2.35109;-0.00667808;
0.204007;1.25681;2.39451;-0.0066954;
0.204017;1.2607;2.43822;-0.00670606;
0.204027;1.26458;2.48206;-0.00671002;
0.204037;1.26842;2.52584;-0.00670726;
0.204047;1.27221;2.5694;-0.0066978;
0.204057;1.27593;2.61256;-0.00668166;
0.204067;1.27957;2.65515;-0.00665893;
0.204077;1.28312;2.697;-0.00662968;
0.204087;1.28656;2.73795;-0.00659403;
0.204097;1.28988;2.77784;-0.00655213;
0.204107;1.29306;2.81651;-0.00650414;
0.204117;1.29609;2.8538;-0.00645026;
0.204127;1.29897;2.88957;-0.0063907;
0.204137;1.30167;2.92368;-0.00632569;
0.204147;1.30419;2.956;-0.00625551;
0.204157;1.30652;2.98638;-0.00618041;
0.204167;1.30864;3.01473;-0.00610071;
0.204177;1.31056;3.04092;-0.00601671;
0.204187;1.31226;3.06485;-0.00592876;
0.204197;1.31374;3.08643;-0.00583719;
0.204207;1.31498;3.10557;-0.00574237;
0.204217;1.31599;3.1222;-0.00564467;
0.204227;1.31677;3.13626;-0.00554447;
0.204237;1.3173;3.14768;-0.00544218;
0.204247;1.31759;3.15642;-0.00533818;
0.204257;1.31763;3.16245;-0.00523289;
0.204267;1.31743;3.16574;-0.00512672;
0.204277;1.31698;3.16629;-0.00502009;
0.204287;1.31629;3.16408;-0.00491342;
0.204297;1.31537;3.15913;-0.00480711;
0.204307;1.3142;3.15146;-0.0047016;
0.204317;1.31281;3.1411;-0.00459729;
0.204327;1.31118;3.12809;-0.00449459;
0.204337;1.30934;3.11247;-0.00439391;
0.204347;1.30729;3.09431;-0.00429564;
0.204357;1.30503;3.07369;-0.00420017;
0.204367;1.30258;3.05068;-0.00410788;
0.204377;1.29994;3.02537;-0.00401912;
0.204387;1.29712;2.99787;-0.00393426;
0.204397;1.29415;2.96827;-0.00385361;
0.204407;1.29101;2.93671;-0.00377752;
0.204417;1.28774;2.9033;-0.00370627;
0.204427;1.28434;2.86817;-0.00364015;
0.204437;1.28083;2.83146;-0.00357942;
0.204447;1.27722;2.79332;-0.00352433;
0.204457;1.27352;2.75389;-0.00347509;
0.204467;1.26975;2.71334;-0.00343191;
0.204477;1.26593;2.67183;-0.00339494;
0.204487;1.26206;2.62951;-0.00336435;
0.204497;1.25817;2.58656;-0.00334025;
0.204507;1.25427;2.54314;-0.00332273;
0.204517;1.25037;2.49942;-0.00331188;
0.204527;1.24649;2.45559;-0.00330773;
0.204537;1.24265;2.41181;-0.00331029;
0.204547;1.23886;2.36825;-0.00331957;
0.204557;1.23514;2.32509;-0.00333551;
0.204567;1.23149;2.2825;-0.00335805;
0.204577;1.22794;2.24065;-0.00338711;
0.204587;1.2245;2.1997;-0.00342256;
0.204597;1.22119;2.15981;-0.00346427;
0.204607;1.21801;2.12114;-0.00351207;
0.204617;1.21497;2.08385;-0.00356576;
0.204627;1.2121;2.04808;-0.00362513;
0.204637;1.2094;2.01397;-0.00368994;
0.204647;1.20688;1.98166;-0.00375994;
0.204657;1.20455;1.95127;-0.00383484;
0.204667;1.20243;1.92292;-0.00391435;
0.204677;1.20051;1.89673;-0.00399815;
0.204687;1.19881;1.8728;-0.00408592;
0.204697;1.19733;1.85122;-0.00417729;
0.204707;1.19609;1.83208;-0.00427193;
0.204717;1.19507;1.81545;-0.00436944;
0.204727;1.1943;1.8014;-0.00446944;
0.204737;1.19377;1.78998;-0.00457155;
0.204747;1.19348;1.78124;-0.00467536;
0.204757;1.19343;1.77521;-0.00478045;
0.204767;1.19363;1.77191;-0.00488643;
0.204777;1.19408;1.77137;-0.00499287;
0.204787;1.19476;1.77357;-0.00509936;
0.204797;1.19569;1.77852;-0.00520547;
0.204807;1.19685;1.78619;-0.0053108;
0.204817;1.19824;1.79656;-0.00541492;
0.204827;1.19986;1.80957;-0.00551743;
0.204837;1.20169;1.82519;-0.00561792;
0.204847;1.20374;1.84335;-0.005716;
0.204857;1.206;1.86397;-0.00581128;
0.204867;1.20845;1.88698;-0.00590338;
0.204877;1.21108;1.91229;-0.00599195;
0.204887;1.21389;1.93979;-0.00607662;
0.204897;1.21687;1.96939;-0.00615707;
0.204907;1.22;2.00096;-0.00623297;
0.204917;1.22326;2.03437;-0.00630403;
0.204927;1.22666;2.0695;-0.00636996;
0.204937;1.23017;2.10621;-0.00643049;
0.204947;1.23378;2.14435;-0.00648539;
0.204957;1.23747;2.18377;-0.00653444;
0.204967;1.24124;2.22432;-0.00657743;
0.204977;1.24506;2.26584;-0.00661421;
0.204987;1.24892;2.30816;-0.00664461;
0.204997;1.25281;2.35112;-0.00666852;
0.205007;1.25671;2.39454;-0.00668583;
0.205017;1.26061;2.43825;-0.0066965;
0.205027;1.26449;2.48208;-0.00670046;
0.205037;1.26833;2.52587;-0.0066977;
0.205047;1.27212;2.56942;-0.00668823;
0.205057;1.27584;2.61258;-0.0066721;
0.205067;1.27948;2.65517;-0.00664936;
0.205077;1.28303;2.69703;-0.00662011;
0.205087;1.28647;2.73798;-0.00658446;
0.205097;1.28979;2.77787;-0.00654256;
0.205107;1.29297;2.81653;-0.00649458;
0.205117;1.296;2.85383;-0.00644069;
0.205127;1.29888;2.8896;-0.00638113;
0.205137;1.30158;2.92371;-0.00631613;
0.205147;1.3041;2.95602;-0.00624594;
0.205157;1.30642;2.98641;-0.00617085;
