time;V(/OUT_N);V(/OUT_SINGLE);
9;1.3228;4.96769;
9.00001;1.32617;4.98872;
9.00002;1.32953;5.00976;
9.00003;1.33287;5.03073;
9.00004;1.33618;5.05153;
9.00005;1.33943;5.07208;
9.00006;1.34262;5.09231;
9.00007;1.34574;5.11214;
9.00008;1.34877;5.13148;
9.00009;1.3517;5.15027;
9.0001;1.35452;5.16841;
9.00011;1.35721;5.18586;
9.00012;1.35978;5.20253;
9.00013;1.3622;5.21835;
9.00014;1.36447;5.23328;
9.00015;1.36658;5.24725;
9.00016;1.36852;5.26019;
9.00017;1.37028;5.27207;
9.00018;1.37186;5.28284;
9.00019;1.37325;5.29245;
9.0002;1.37444;5.30087;
9.00021;1.37543;5.30805;
9.00022;1.37622;5.31399;
9.00023;1.3768;5.31864;
9.00024;1.37717;5.32199;
9.00025;1.37733;5.32404;
9.00026;1.37727;5.32476;
9.00027;1.37701;5.32417;
9.00028;1.37654;5.32225;
9.00029;1.37585;5.31902;
9.0003;1.37496;5.3145;
9.00031;1.37387;5.30869;
9.00032;1.37258;5.30162;
9.00033;1.3711;5.29333;
9.00034;1.36942;5.28383;
9.00035;1.36757;5.27318;
9.00036;1.36555;5.2614;
9.00037;1.36336;5.24856;
9.00038;1.36101;5.23469;
9.00039;1.35852;5.21985;
9.0004;1.35588;5.20411;
9.00041;1.35312;5.18752;
9.00042;1.35025;5.17015;
9.00043;1.34727;5.15207;
9.00044;1.34419;5.13334;
9.00045;1.34104;5.11405;
9.00046;1.33781;5.09427;
9.00047;1.33453;5.07407;
9.00048;1.33121;5.05355;
9.00049;1.32786;5.03277;
9.0005;1.32449;5.01182;
9.00051;1.32112;4.99078;
9.00052;1.31775;4.96974;
9.00053;1.31442;4.94878;
9.00054;1.31111;4.92797;
9.00055;1.30786;4.90742;
9.00056;1.30467;4.88719;
9.00057;1.30155;4.86736;
9.00058;1.29853;4.84802;
9.00059;1.2956;4.82924;
9.0006;1.29278;4.81109;
9.00061;1.29008;4.79364;
9.00062;1.28752;4.77698;
9.00063;1.2851;4.76115;
9.00064;1.28283;4.74622;
9.00065;1.28072;4.73226;
9.00066;1.27878;4.71931;
9.00067;1.27702;4.70743;
9.00068;1.27544;4.69666;
9.00069;1.27406;4.68705;
9.0007;1.27287;4.67863;
9.00071;1.27187;4.67145;
9.00072;1.27109;4.66552;
9.00073;1.27051;4.66086;
9.00074;1.27014;4.65751;
9.00075;1.26998;4.65546;
9.00076;1.27003;4.65474;
9.00077;1.2703;4.65533;
9.00078;1.27077;4.65725;
9.00079;1.27145;4.66048;
9.0008;1.27234;4.665;
9.00081;1.27343;4.67081;
9.00082;1.27472;4.67788;
9.00083;1.27621;4.68618;
9.00084;1.27788;4.69567;
9.00085;1.27973;4.70633;
9.00086;1.28175;4.7181;
9.00087;1.28394;4.73095;
9.00088;1.28629;4.74481;
9.00089;1.28878;4.75965;
9.0009;1.29141;4.77539;
9.00091;1.29417;4.79198;
9.00092;1.29704;4.80935;
9.00093;1.30002;4.82743;
9.00094;1.3031;4.84616;
9.00095;1.30625;4.86545;
9.00096;1.30947;4.88523;
9.00097;1.31275;4.90543;
9.00098;1.31608;4.92595;
9.00099;1.31943;4.94674;
9.001;1.3228;4.96769;
9.00101;1.32617;4.98872;
9.00102;1.32953;5.00976;
9.00103;1.33287;5.03073;
9.00104;1.33617;5.05153;
9.00105;1.33943;5.07208;
9.00106;1.34262;5.09231;
9.00107;1.34574;5.11214;
9.00108;1.34876;5.13148;
9.00109;1.35169;5.15027;
9.0011;1.35451;5.16841;
9.00111;1.35721;5.18586;
9.00112;1.35978;5.20253;
9.00113;1.3622;5.21835;
9.00114;1.36447;5.23328;
9.00115;1.36658;5.24725;
9.00116;1.36852;5.26019;
9.00117;1.37028;5.27207;
9.00118;1.37186;5.28284;
9.00119;1.37324;5.29245;
9.0012;1.37444;5.30087;
9.00121;1.37543;5.30805;
9.00122;1.37622;5.31399;
9.00123;1.3768;5.31864;
9.00124;1.37717;5.32199;
9.00125;1.37733;5.32404;
9.00126;1.37727;5.32476;
9.00127;1.37701;5.32417;
9.00128;1.37653;5.32225;
9.00129;1.37585;5.31902;
9.0013;1.37496;5.3145;
9.00131;1.37387;5.30869;
9.00132;1.37258;5.30162;
9.00133;1.37109;5.29333;
9.00134;1.36942;5.28383;
9.00135;1.36757;5.27318;
9.00136;1.36555;5.2614;
9.00137;1.36336;5.24856;
9.00138;1.36101;5.23469;
9.00139;1.35851;5.21985;
9.0014;1.35588;5.20411;
9.00141;1.35312;5.18752;
9.00142;1.35025;5.17015;
9.00143;1.34727;5.15207;
9.00144;1.34419;5.13334;
9.00145;1.34104;5.11405;
9.00146;1.33781;5.09427;
9.00147;1.33453;5.07407;
9.00148;1.33121;5.05355;
9.00149;1.32786;5.03277;
9.0015;1.32449;5.01182;
9.00151;1.32112;4.99078;
9.00152;1.31775;4.96974;
9.00153;1.31441;4.94878;
9.00154;1.31111;4.92797;
9.00155;1.30786;4.90742;
9.00156;1.30467;4.88719;
9.00157;1.30155;4.86736;
9.00158;1.29852;4.84802;
9.00159;1.2956;4.82924;
9.0016;1.29278;4.81109;
9.00161;1.29008;4.79364;
9.00162;1.28752;4.77698;
9.00163;1.2851;4.76115;
9.00164;1.28283;4.74622;
9.00165;1.28072;4.73226;
9.00166;1.27878;4.71931;
9.00167;1.27702;4.70743;
9.00168;1.27544;4.69666;
9.00169;1.27406;4.68705;
9.0017;1.27286;4.67863;
9.00171;1.27187;4.67145;
9.00172;1.27109;4.66552;
9.00173;1.27051;4.66086;
9.00174;1.27014;4.65751;
9.00175;1.26998;4.65546;
9.00176;1.27003;4.65474;
9.00177;1.27029;4.65533;
9.00178;1.27077;4.65725;
9.00179;1.27145;4.66048;
9.0018;1.27234;4.665;
9.00181;1.27343;4.67081;
9.00182;1.27472;4.67788;
9.00183;1.2762;4.68618;
9.00184;1.27787;4.69567;
9.00185;1.27972;4.70633;
9.00186;1.28175;4.7181;
9.00187;1.28394;4.73095;
9.00188;1.28628;4.74481;
9.00189;1.28878;4.75965;
9.0019;1.29141;4.77539;
9.00191;1.29417;4.79198;
9.00192;1.29704;4.80935;
9.00193;1.30002;4.82743;
9.00194;1.30309;4.84616;
9.00195;1.30625;4.86545;
9.00196;1.30947;4.88523;
9.00197;1.31275;4.90543;
9.00198;1.31607;4.92595;
9.00199;1.31943;4.94674;
9.002;1.32279;4.96769;
9.00201;1.32617;4.98872;
9.00202;1.32953;5.00976;
9.00203;1.33287;5.03073;
9.00204;1.33617;5.05153;
9.00205;1.33943;5.07208;
9.00206;1.34262;5.09231;
9.00207;1.34573;5.11214;
9.00208;1.34876;5.13148;
9.00209;1.35169;5.15027;
9.0021;1.35451;5.16841;
9.00211;1.35721;5.18586;
9.00212;1.35977;5.20253;
9.00213;1.3622;5.21835;
9.00214;1.36447;5.23328;
9.00215;1.36658;5.24725;
9.00216;1.36851;5.26019;
9.00217;1.37028;5.27207;
9.00218;1.37186;5.28284;
9.00219;1.37324;5.29245;
9.0022;1.37444;5.30087;
9.00221;1.37543;5.30805;
9.00222;1.37621;5.31399;
9.00223;1.37679;5.31864;
9.00224;1.37716;5.32199;
9.00225;1.37732;5.32404;
9.00226;1.37727;5.32476;
9.00227;1.37701;5.32417;
9.00228;1.37653;5.32225;
9.00229;1.37585;5.31902;
9.0023;1.37496;5.3145;
9.00231;1.37387;5.30869;
9.00232;1.37258;5.30162;
9.00233;1.37109;5.29333;
9.00234;1.36942;5.28383;
9.00235;1.36757;5.27318;
9.00236;1.36554;5.2614;
9.00237;1.36335;5.24856;
9.00238;1.36101;5.23469;
9.00239;1.35851;5.21985;
9.0024;1.35588;5.20411;
9.00241;1.35312;5.18752;
9.00242;1.35025;5.17015;
9.00243;1.34726;5.15207;
9.00244;1.34419;5.13334;
9.00245;1.34103;5.11405;
9.00246;1.33781;5.09427;
9.00247;1.33453;5.07407;
9.00248;1.33121;5.05355;
9.00249;1.32786;5.03277;
9.0025;1.32449;5.01182;
9.00251;1.32111;4.99078;
9.00252;1.31775;4.96974;
9.00253;1.31441;4.94878;
9.00254;1.31111;4.92797;
9.00255;1.30786;4.90742;
9.00256;1.30467;4.88719;
9.00257;1.30155;4.86736;
9.00258;1.29852;4.84802;
9.00259;1.29559;4.82924;
9.0026;1.29278;4.81109;
9.00261;1.29008;4.79364;
9.00262;1.28752;4.77698;
9.00263;1.28509;4.76115;
9.00264;1.28283;4.74622;
9.00265;1.28072;4.73226;
9.00266;1.27878;4.71931;
9.00267;1.27702;4.70743;
9.00268;1.27544;4.69666;
9.00269;1.27405;4.68705;
9.0027;1.27286;4.67863;
9.00271;1.27187;4.67145;
9.00272;1.27108;4.66552;
9.00273;1.2705;4.66086;
9.00274;1.27013;4.65751;
9.00275;1.26998;4.65546;
9.00276;1.27003;4.65474;
9.00277;1.27029;4.65533;
9.00278;1.27077;4.65725;
9.00279;1.27145;4.66048;
9.0028;1.27234;4.665;
9.00281;1.27343;4.67081;
9.00282;1.27472;4.67788;
9.00283;1.2762;4.68618;
9.00284;1.27787;4.69567;
9.00285;1.27972;4.70633;
9.00286;1.28175;4.7181;
9.00287;1.28394;4.73095;
9.00288;1.28628;4.74481;
9.00289;1.28878;4.75965;
9.0029;1.29141;4.77539;
9.00291;1.29416;4.79198;
9.00292;1.29704;4.80935;
9.00293;1.30002;4.82743;
9.00294;1.30309;4.84616;
9.00295;1.30625;4.86545;
9.00296;1.30947;4.88523;
9.00297;1.31275;4.90543;
9.00298;1.31607;4.92595;
9.00299;1.31942;4.94674;
9.003;1.32279;4.96769;
9.00301;1.32617;4.98872;
9.00302;1.32953;5.00976;
9.00303;1.33287;5.03073;
9.00304;1.33617;5.05153;
9.00305;1.33942;5.07208;
9.00306;1.34262;5.09231;
9.00307;1.34573;5.11214;
9.00308;1.34876;5.13148;
9.00309;1.35169;5.15027;
9.0031;1.35451;5.16841;
9.00311;1.35721;5.18586;
9.00312;1.35977;5.20253;
9.00313;1.36219;5.21835;
9.00314;1.36446;5.23328;
9.00315;1.36657;5.24725;
9.00316;1.36851;5.26019;
9.00317;1.37028;5.27207;
9.00318;1.37185;5.28284;
9.00319;1.37324;5.29245;
9.0032;1.37443;5.30087;
9.00321;1.37543;5.30805;
9.00322;1.37621;5.31399;
9.00323;1.37679;5.31864;
9.00324;1.37716;5.32199;
9.00325;1.37732;5.32404;
9.00326;1.37727;5.32476;
9.00327;1.377;5.32417;
9.00328;1.37653;5.32225;
9.00329;1.37585;5.31902;
9.0033;1.37496;5.3145;
9.00331;1.37386;5.30869;
9.00332;1.37257;5.30162;
9.00333;1.37109;5.29333;
9.00334;1.36942;5.28383;
9.00335;1.36757;5.27318;
9.00336;1.36554;5.2614;
9.00337;1.36335;5.24856;
9.00338;1.36101;5.23469;
9.00339;1.35851;5.21985;
9.0034;1.35588;5.20411;
9.00341;1.35312;5.18752;
9.00342;1.35024;5.17015;
9.00343;1.34726;5.15207;
9.00344;1.34419;5.13334;
9.00345;1.34103;5.11405;
9.00346;1.33781;5.09427;
9.00347;1.33453;5.07407;
9.00348;1.33121;5.05355;
9.00349;1.32785;5.03277;
9.0035;1.32448;5.01182;
9.00351;1.32111;4.99078;
9.00352;1.31775;4.96974;
9.00353;1.31441;4.94878;
9.00354;1.31111;4.92797;
9.00355;1.30786;4.90742;
9.00356;1.30466;4.88719;
9.00357;1.30155;4.86736;
9.00358;1.29852;4.84802;
9.00359;1.29559;4.82924;
9.0036;1.29277;4.81109;
9.00361;1.29008;4.79364;
9.00362;1.28751;4.77698;
9.00363;1.28509;4.76115;
9.00364;1.28282;4.74622;
9.00365;1.28072;4.73226;
9.00366;1.27878;4.71931;
9.00367;1.27702;4.70743;
9.00368;1.27544;4.69666;
9.00369;1.27405;4.68705;
9.0037;1.27286;4.67863;
9.00371;1.27187;4.67145;
9.00372;1.27108;4.66552;
9.00373;1.2705;4.66086;
9.00374;1.27013;4.65751;
9.00375;1.26997;4.65546;
9.00376;1.27003;4.65474;
9.00377;1.27029;4.65533;
9.00378;1.27077;4.65725;
9.00379;1.27145;4.66048;
9.0038;1.27234;4.665;
9.00381;1.27343;4.67081;
9.00382;1.27472;4.67788;
9.00383;1.2762;4.68618;
9.00384;1.27787;4.69567;
9.00385;1.27972;4.70633;
9.00386;1.28175;4.7181;
9.00387;1.28393;4.73095;
9.00388;1.28628;4.74481;
9.00389;1.28877;4.75965;
9.0039;1.2914;4.77539;
9.00391;1.29416;4.79198;
9.00392;1.29704;4.80935;
9.00393;1.30002;4.82743;
9.00394;1.30309;4.84616;
9.00395;1.30625;4.86545;
9.00396;1.30947;4.88523;
9.00397;1.31275;4.90543;
9.00398;1.31607;4.92595;
9.00399;1.31942;4.94674;
9.004;1.32279;4.96769;
9.00401;1.32616;4.98872;
9.00402;1.32953;5.00976;
9.00403;1.33287;5.03073;
9.00404;1.33617;5.05153;
9.00405;1.33942;5.07208;
9.00406;1.34261;5.09231;
9.00407;1.34573;5.11214;
9.00408;1.34876;5.13148;
9.00409;1.35169;5.15027;
9.0041;1.35451;5.16841;
9.00411;1.35721;5.18586;
9.00412;1.35977;5.20253;
9.00413;1.36219;5.21835;
9.00414;1.36446;5.23328;
9.00415;1.36657;5.24725;
9.00416;1.36851;5.26019;
9.00417;1.37027;5.27207;
9.00418;1.37185;5.28284;
9.00419;1.37324;5.29245;
9.0042;1.37443;5.30087;
9.00421;1.37542;5.30805;
9.00422;1.37621;5.31399;
9.00423;1.37679;5.31864;
9.00424;1.37716;5.32199;
9.00425;1.37732;5.32404;
9.00426;1.37727;5.32476;
9.00427;1.377;5.32417;
9.00428;1.37653;5.32225;
9.00429;1.37584;5.31902;
9.0043;1.37495;5.3145;
9.00431;1.37386;5.30869;
9.00432;1.37257;5.30162;
9.00433;1.37109;5.29333;
9.00434;1.36942;5.28383;
9.00435;1.36757;5.27318;
9.00436;1.36554;5.2614;
9.00437;1.36335;5.24856;
9.00438;1.361;5.23469;
9.00439;1.35851;5.21985;
9.0044;1.35588;5.20411;
9.00441;1.35312;5.18752;
9.00442;1.35024;5.17015;
9.00443;1.34726;5.15207;
9.00444;1.34419;5.13334;
9.00445;1.34103;5.11405;
9.00446;1.33781;5.09427;
9.00447;1.33453;5.07407;
9.00448;1.3312;5.05355;
9.00449;1.32785;5.03277;
9.0045;1.32448;5.01182;
9.00451;1.32111;4.99078;
9.00452;1.31775;4.96974;
9.00453;1.31441;4.94878;
9.00454;1.31111;4.92797;
9.00455;1.30785;4.90742;
9.00456;1.30466;4.88719;
9.00457;1.30155;4.86736;
9.00458;1.29852;4.84802;
9.00459;1.29559;4.82924;
9.0046;1.29277;4.81109;
9.00461;1.29008;4.79364;
9.00462;1.28751;4.77698;
9.00463;1.28509;4.76115;
9.00464;1.28282;4.74622;
9.00465;1.28071;4.73226;
9.00466;1.27878;4.71931;
9.00467;1.27701;4.70743;
9.00468;1.27544;4.69666;
9.00469;1.27405;4.68705;
9.0047;1.27286;4.67863;
9.00471;1.27187;4.67145;
9.00472;1.27108;4.66552;
9.00473;1.2705;4.66086;
9.00474;1.27013;4.65751;
9.00475;1.26997;4.65546;
9.00476;1.27003;4.65474;
9.00477;1.27029;4.65533;
9.00478;1.27076;4.65725;
9.00479;1.27145;4.66048;
9.0048;1.27234;4.665;
9.00481;1.27343;4.67081;
9.00482;1.27472;4.67788;
9.00483;1.2762;4.68618;
9.00484;1.27787;4.69567;
9.00485;1.27972;4.70633;
9.00486;1.28174;4.7181;
9.00487;1.28393;4.73095;
9.00488;1.28628;4.74481;
9.00489;1.28877;4.75965;
9.0049;1.2914;4.77539;
9.00491;1.29416;4.79198;
9.00492;1.29704;4.80935;
9.00493;1.30002;4.82743;
9.00494;1.30309;4.84616;
9.00495;1.30624;4.86545;
9.00496;1.30947;4.88523;
9.00497;1.31275;4.90543;
9.00498;1.31607;4.92595;
9.00499;1.31942;4.94674;
9.005;1.32279;4.96769;
9.00501;1.32616;4.98872;
9.00502;1.32952;5.00976;
9.00503;1.33286;5.03073;
9.00504;1.33617;5.05153;
9.00505;1.33942;5.07208;
9.00506;1.34261;5.09231;
9.00507;1.34573;5.11214;
9.00508;1.34876;5.13148;
9.00509;1.35169;5.15027;
9.0051;1.35451;5.16841;
9.00511;1.3572;5.18586;
9.00512;1.35977;5.20253;
9.00513;1.36219;5.21835;
9.00514;1.36446;5.23328;
9.00515;1.36657;5.24725;
9.00516;1.36851;5.26019;
9.00517;1.37027;5.27207;
9.00518;1.37185;5.28284;
9.00519;1.37324;5.29245;
9.0052;1.37443;5.30087;
9.00521;1.37542;5.30805;
9.00522;1.37621;5.31399;
9.00523;1.37679;5.31864;
9.00524;1.37716;5.32199;
9.00525;1.37732;5.32404;
9.00526;1.37727;5.32476;
9.00527;1.377;5.32417;
9.00528;1.37653;5.32225;
9.00529;1.37584;5.31902;
9.0053;1.37495;5.3145;
9.00531;1.37386;5.30869;
9.00532;1.37257;5.30162;
9.00533;1.37109;5.29333;
9.00534;1.36942;5.28383;
9.00535;1.36756;5.27318;
9.00536;1.36554;5.2614;
9.00537;1.36335;5.24856;
9.00538;1.361;5.23469;
9.00539;1.35851;5.21985;
9.0054;1.35588;5.20411;
9.00541;1.35312;5.18752;
9.00542;1.35024;5.17015;
9.00543;1.34726;5.15207;
9.00544;1.34418;5.13334;
9.00545;1.34103;5.11405;
9.00546;1.33781;5.09427;
9.00547;1.33453;5.07407;
9.00548;1.3312;5.05355;
9.00549;1.32785;5.03277;
9.0055;1.32448;5.01182;
9.00551;1.32111;4.99078;
9.00552;1.31775;4.96974;
9.00553;1.31441;4.94878;
9.00554;1.3111;4.92797;
9.00555;1.30785;4.90742;
9.00556;1.30466;4.88719;
9.00557;1.30155;4.86736;
9.00558;1.29852;4.84802;
9.00559;1.29559;4.82924;
9.0056;1.29277;4.81109;
9.00561;1.29007;4.79364;
9.00562;1.28751;4.77698;
9.00563;1.28509;4.76115;
9.00564;1.28282;4.74622;
9.00565;1.28071;4.73226;
9.00566;1.27877;4.71931;
9.00567;1.27701;4.70743;
9.00568;1.27544;4.69666;
9.00569;1.27405;4.68705;
9.0057;1.27286;4.67863;
9.00571;1.27187;4.67145;
9.00572;1.27108;4.66552;
9.00573;1.2705;4.66086;
9.00574;1.27013;4.65751;
9.00575;1.26997;4.65546;
9.00576;1.27002;4.65474;
9.00577;1.27029;4.65533;
9.00578;1.27076;4.65725;
9.00579;1.27145;4.66048;
9.0058;1.27233;4.665;
9.00581;1.27343;4.67081;
9.00582;1.27472;4.67788;
9.00583;1.2762;4.68618;
9.00584;1.27787;4.69567;
9.00585;1.27972;4.70633;
9.00586;1.28174;4.7181;
9.00587;1.28393;4.73095;
9.00588;1.28628;4.74481;
9.00589;1.28877;4.75965;
9.0059;1.2914;4.77539;
9.00591;1.29416;4.79198;
9.00592;1.29703;4.80935;
9.00593;1.30001;4.82743;
9.00594;1.30309;4.84616;
9.00595;1.30624;4.86545;
9.00596;1.30946;4.88523;
9.00597;1.31274;4.90543;
9.00598;1.31607;4.92595;
9.00599;1.31942;4.94674;
9.006;1.32279;4.96769;
9.00601;1.32616;4.98872;
9.00602;1.32952;5.00976;
9.00603;1.33286;5.03073;
9.00604;1.33617;5.05153;
9.00605;1.33942;5.07208;
9.00606;1.34261;5.09231;
9.00607;1.34573;5.11214;
9.00608;1.34876;5.13148;
9.00609;1.35169;5.15027;
9.0061;1.3545;5.16841;
9.00611;1.3572;5.18586;
9.00612;1.35977;5.20253;
9.00613;1.36219;5.21835;
9.00614;1.36446;5.23328;
9.00615;1.36657;5.24725;
9.00616;1.36851;5.26019;
9.00617;1.37027;5.27207;
9.00618;1.37185;5.28284;
9.00619;1.37324;5.29245;
9.0062;1.37443;5.30087;
9.00621;1.37542;5.30805;
9.00622;1.37621;5.31399;
9.00623;1.37679;5.31864;
9.00624;1.37716;5.32199;
9.00625;1.37732;5.32404;
9.00626;1.37726;5.32476;
9.00627;1.377;5.32417;
9.00628;1.37652;5.32225;
9.00629;1.37584;5.31902;
9.0063;1.37495;5.3145;
9.00631;1.37386;5.30869;
9.00632;1.37257;5.30162;
9.00633;1.37108;5.29333;
9.00634;1.36941;5.28383;
9.00635;1.36756;5.27318;
9.00636;1.36554;5.2614;
9.00637;1.36335;5.24856;
9.00638;1.361;5.23469;
9.00639;1.35851;5.21985;
9.0064;1.35587;5.20411;
9.00641;1.35311;5.18752;
9.00642;1.35024;5.17015;
9.00643;1.34726;5.15207;
9.00644;1.34418;5.13334;
9.00645;1.34103;5.11405;
9.00646;1.3378;5.09427;
9.00647;1.33452;5.07407;
9.00648;1.3312;5.05355;
9.00649;1.32785;5.03277;
9.0065;1.32448;5.01182;
9.00651;1.32111;4.99078;
9.00652;1.31774;4.96974;
9.00653;1.31441;4.94878;
9.00654;1.3111;4.92797;
9.00655;1.30785;4.90742;
9.00656;1.30466;4.88719;
9.00657;1.30154;4.86736;
9.00658;1.29852;4.84802;
9.00659;1.29559;4.82924;
9.0066;1.29277;4.81109;
9.00661;1.29007;4.79364;
9.00662;1.28751;4.77698;
9.00663;1.28509;4.76115;
9.00664;1.28282;4.74622;
9.00665;1.28071;4.73226;
9.00666;1.27877;4.71931;
9.00667;1.27701;4.70743;
9.00668;1.27543;4.69666;
9.00669;1.27405;4.68705;
9.0067;1.27286;4.67863;
9.00671;1.27186;4.67145;
9.00672;1.27108;4.66552;
9.00673;1.2705;4.66086;
9.00674;1.27013;4.65751;
9.00675;1.26997;4.65546;
9.00676;1.27002;4.65474;
9.00677;1.27029;4.65533;
9.00678;1.27076;4.65725;
9.00679;1.27144;4.66048;
9.0068;1.27233;4.665;
9.00681;1.27342;4.67081;
9.00682;1.27471;4.67788;
9.00683;1.2762;4.68618;
9.00684;1.27787;4.69567;
9.00685;1.27972;4.70633;
9.00686;1.28174;4.7181;
9.00687;1.28393;4.73095;
9.00688;1.28627;4.74481;
9.00689;1.28877;4.75965;
9.0069;1.2914;4.77539;
9.00691;1.29416;4.79198;
9.00692;1.29703;4.80935;
9.00693;1.30001;4.82743;
9.00694;1.30309;4.84616;
9.00695;1.30624;4.86545;
9.00696;1.30946;4.88523;
9.00697;1.31274;4.90543;
9.00698;1.31606;4.92595;
9.00699;1.31942;4.94674;
9.007;1.32279;4.96769;
9.00701;1.32616;4.98872;
9.00702;1.32952;5.00976;
9.00703;1.33286;5.03073;
9.00704;1.33616;5.05153;
9.00705;1.33942;5.07208;
9.00706;1.34261;5.09231;
9.00707;1.34572;5.11214;
9.00708;1.34875;5.13148;
9.00709;1.35168;5.15027;
9.0071;1.3545;5.16841;
9.00711;1.3572;5.18586;
9.00712;1.35977;5.20253;
9.00713;1.36219;5.21835;
9.00714;1.36446;5.23328;
9.00715;1.36657;5.24725;
9.00716;1.36851;5.26019;
9.00717;1.37027;5.27207;
9.00718;1.37185;5.28284;
9.00719;1.37323;5.29245;
9.0072;1.37443;5.30087;
9.00721;1.37542;5.30805;
9.00722;1.37621;5.31399;
9.00723;1.37679;5.31864;
9.00724;1.37716;5.32199;
9.00725;1.37732;5.32404;
9.00726;1.37726;5.32476;
9.00727;1.377;5.32417;
9.00728;1.37652;5.32225;
9.00729;1.37584;5.31902;
9.0073;1.37495;5.3145;
9.00731;1.37386;5.30869;
9.00732;1.37257;5.30162;
9.00733;1.37108;5.29333;
9.00734;1.36941;5.28383;
9.00735;1.36756;5.27318;
9.00736;1.36554;5.2614;
9.00737;1.36335;5.24856;
9.00738;1.361;5.23469;
9.00739;1.3585;5.21985;
9.0074;1.35587;5.20411;
9.00741;1.35311;5.18752;
9.00742;1.35024;5.17015;
9.00743;1.34726;5.15207;
9.00744;1.34418;5.13334;
9.00745;1.34103;5.11405;
9.00746;1.3378;5.09427;
9.00747;1.33452;5.07407;
9.00748;1.3312;5.05355;
9.00749;1.32785;5.03277;
9.0075;1.32448;5.01182;
9.00751;1.32111;4.99078;
9.00752;1.31774;4.96974;
9.00753;1.3144;4.94878;
9.00754;1.3111;4.92797;
9.00755;1.30785;4.90742;
9.00756;1.30466;4.88719;
9.00757;1.30154;4.86736;
9.00758;1.29851;4.84802;
9.00759;1.29558;4.82924;
9.0076;1.29277;4.81109;
9.00761;1.29007;4.79364;
9.00762;1.28751;4.77698;
9.00763;1.28509;4.76115;
9.00764;1.28282;4.74622;
9.00765;1.28071;4.73226;
9.00766;1.27877;4.71931;
9.00767;1.27701;4.70743;
9.00768;1.27543;4.69666;
9.00769;1.27405;4.68705;
9.0077;1.27285;4.67863;
9.00771;1.27186;4.67145;
9.00772;1.27108;4.66552;
9.00773;1.2705;4.66086;
9.00774;1.27013;4.65751;
