time;V(/OUT_N);V(/OUT_SINGLE);
9;1.01425;2.4753;
9.00001;1.01747;2.4954;
9.00002;1.02068;2.51548;
9.00003;1.02386;2.53547;
9.00004;1.027;2.55527;
9.00005;1.03009;2.57481;
9.00006;1.03311;2.59402;
9.00007;1.03607;2.61281;
9.00008;1.03893;2.63112;
9.00009;1.0417;2.64887;
9.0001;1.04435;2.66599;
9.00011;1.04689;2.68242;
9.00012;1.0493;2.69808;
9.00013;1.05156;2.71293;
9.00014;1.05368;2.72689;
9.00015;1.05565;2.73991;
9.00016;1.05744;2.75195;
9.00017;1.05907;2.76296;
9.00018;1.06052;2.77288;
9.00019;1.06179;2.78169;
9.0002;1.06286;2.78935;
9.00021;1.06375;2.79583;
9.00022;1.06444;2.8011;
9.00023;1.06493;2.80514;
9.00024;1.06522;2.80794;
9.00025;1.0653;2.80949;
9.00026;1.06519;2.80977;
9.00027;1.06487;2.80879;
9.00028;1.06435;2.80656;
9.00029;1.06364;2.80307;
9.0003;1.06272;2.79835;
9.00031;1.06162;2.79242;
9.00032;1.06033;2.78529;
9.00033;1.05885;2.77699;
9.00034;1.0572;2.76756;
9.00035;1.05538;2.75704;
9.00036;1.05339;2.74546;
9.00037;1.05125;2.73287;
9.00038;1.04896;2.71932;
9.00039;1.04654;2.70487;
9.0004;1.04398;2.68957;
9.00041;1.04131;2.67348;
9.00042;1.03853;2.65666;
9.00043;1.03565;2.63918;
9.00044;1.03269;2.62112;
9.00045;1.02965;2.60253;
9.00046;1.02656;2.5835;
9.00047;1.02341;2.5641;
9.00048;1.02023;2.54441;
9.00049;1.01702;2.5245;
9.0005;1.0138;2.50445;
9.00051;1.01058;2.48435;
9.00052;1.00737;2.46427;
9.00053;1.00419;2.44429;
9.00054;1.00105;2.42448;
9.00055;0.997962;2.40494;
9.00056;0.994936;2.38574;
9.00057;0.991987;2.36694;
9.00058;0.989124;2.34863;
9.00059;0.98636;2.33088;
9.0006;0.983705;2.31376;
9.00061;0.98117;2.29733;
9.00062;0.978765;2.28167;
9.00063;0.976499;2.26683;
9.00064;0.974382;2.25286;
9.00065;0.972421;2.23984;
9.00066;0.970624;2.2278;
9.00067;0.968998;2.21679;
9.00068;0.96755;2.20687;
9.00069;0.966286;2.19806;
9.0007;0.965209;2.1904;
9.00071;0.964326;2.18392;
9.00072;0.963638;2.17865;
9.00073;0.963149;2.17461;
9.00074;0.96286;2.17181;
9.00075;0.962774;2.17027;
9.00076;0.962889;2.16998;
9.00077;0.963206;2.17096;
9.00078;0.963723;2.17319;
9.00079;0.964439;2.17668;
9.0008;0.96535;2.1814;
9.00081;0.966453;2.18733;
9.00082;0.967743;2.19446;
9.00083;0.969217;2.20276;
9.00084;0.970867;2.21219;
9.00085;0.972687;2.22271;
9.00086;0.974671;2.23429;
9.00087;0.97681;2.24688;
9.00088;0.979096;2.26043;
9.00089;0.98152;2.27488;
9.0009;0.984072;2.29018;
9.00091;0.986743;2.30627;
9.00092;0.989522;2.32309;
9.00093;0.992398;2.34057;
9.00094;0.995359;2.35863;
9.00095;0.998394;2.37722;
9.00096;1.00149;2.39625;
9.00097;1.00464;2.41565;
9.00098;1.00782;2.43534;
9.00099;1.01103;2.45525;
9.001;1.01425;2.4753;
9.00101;1.01747;2.4954;
9.00102;1.02068;2.51548;
9.00103;1.02386;2.53547;
9.00104;1.027;2.55527;
9.00105;1.03009;2.57481;
9.00106;1.03311;2.59402;
9.00107;1.03606;2.61281;
9.00108;1.03893;2.63112;
9.00109;1.04169;2.64887;
9.0011;1.04435;2.66599;
9.00111;1.04689;2.68242;
9.00112;1.0493;2.69808;
9.00113;1.05156;2.71293;
9.00114;1.05368;2.72689;
9.00115;1.05565;2.73991;
9.00116;1.05744;2.75195;
9.00117;1.05907;2.76296;
9.00118;1.06052;2.77288;
9.00119;1.06179;2.78169;
9.0012;1.06286;2.78935;
9.00121;1.06375;2.79583;
9.00122;1.06444;2.8011;
9.00123;1.06493;2.80514;
9.00124;1.06522;2.80794;
9.00125;1.0653;2.80949;
9.00126;1.06519;2.80977;
9.00127;1.06487;2.80879;
9.00128;1.06435;2.80656;
9.00129;1.06364;2.80307;
9.0013;1.06272;2.79835;
9.00131;1.06162;2.79242;
9.00132;1.06033;2.78529;
9.00133;1.05885;2.77699;
9.00134;1.0572;2.76756;
9.00135;1.05538;2.75704;
9.00136;1.05339;2.74546;
9.00137;1.05125;2.73287;
9.00138;1.04896;2.71932;
9.00139;1.04654;2.70487;
9.0014;1.04398;2.68957;
9.00141;1.04131;2.67348;
9.00142;1.03853;2.65666;
9.00143;1.03565;2.63918;
9.00144;1.03269;2.62112;
9.00145;1.02965;2.60253;
9.00146;1.02656;2.5835;
9.00147;1.02341;2.5641;
9.00148;1.02022;2.54441;
9.00149;1.01702;2.5245;
9.0015;1.0138;2.50445;
9.00151;1.01058;2.48435;
9.00152;1.00737;2.46427;
9.00153;1.00419;2.44429;
9.00154;1.00105;2.42448;
9.00155;0.997961;2.40494;
9.00156;0.994936;2.38574;
9.00157;0.991986;2.36694;
9.00158;0.989123;2.34863;
9.00159;0.986359;2.33088;
9.0016;0.983704;2.31376;
9.00161;0.981169;2.29733;
9.00162;0.978764;2.28167;
9.00163;0.976499;2.26683;
9.00164;0.974381;2.25286;
9.00165;0.97242;2.23984;
9.00166;0.970623;2.2278;
9.00167;0.968997;2.21679;
9.00168;0.96755;2.20687;
9.00169;0.966285;2.19806;
9.0017;0.965209;2.1904;
9.00171;0.964325;2.18392;
9.00172;0.963637;2.17865;
9.00173;0.963148;2.17461;
9.00174;0.96286;2.17181;
9.00175;0.962773;2.17027;
9.00176;0.962888;2.16998;
9.00177;0.963205;2.17096;
9.00178;0.963722;2.17319;
9.00179;0.964438;2.17668;
9.0018;0.965349;2.1814;
9.00181;0.966452;2.18733;
9.00182;0.967743;2.19446;
9.00183;0.969216;2.20276;
9.00184;0.970866;2.21219;
9.00185;0.972687;2.22271;
9.00186;0.97467;2.23429;
9.00187;0.976809;2.24688;
9.00188;0.979095;2.26043;
9.00189;0.981519;2.27488;
9.0019;0.984072;2.29018;
9.00191;0.986743;2.30627;
9.00192;0.989521;2.32309;
9.00193;0.992397;2.34057;
9.00194;0.995358;2.35863;
9.00195;0.998393;2.37722;
9.00196;1.00149;2.39625;
9.00197;1.00464;2.41565;
9.00198;1.00782;2.43534;
9.00199;1.01103;2.45525;
9.002;1.01425;2.4753;
9.00201;1.01747;2.4954;
9.00202;1.02068;2.51548;
9.00203;1.02386;2.53547;
9.00204;1.027;2.55527;
9.00205;1.03009;2.57481;
9.00206;1.03311;2.59402;
9.00207;1.03606;2.61281;
9.00208;1.03893;2.63112;
9.00209;1.04169;2.64887;
9.0021;1.04435;2.66599;
9.00211;1.04689;2.68242;
9.00212;1.04929;2.69808;
9.00213;1.05156;2.71293;
9.00214;1.05368;2.72689;
9.00215;1.05564;2.73991;
9.00216;1.05744;2.75195;
9.00217;1.05907;2.76296;
9.00218;1.06052;2.77288;
9.00219;1.06179;2.78169;
9.0022;1.06286;2.78935;
9.00221;1.06375;2.79583;
9.00222;1.06444;2.8011;
9.00223;1.06493;2.80514;
9.00224;1.06521;2.80794;
9.00225;1.0653;2.80949;
9.00226;1.06519;2.80977;
9.00227;1.06487;2.80879;
9.00228;1.06435;2.80656;
9.00229;1.06363;2.80307;
9.0023;1.06272;2.79835;
9.00231;1.06162;2.79242;
9.00232;1.06033;2.78529;
9.00233;1.05885;2.77699;
9.00234;1.0572;2.76756;
9.00235;1.05538;2.75704;
9.00236;1.05339;2.74546;
9.00237;1.05125;2.73287;
9.00238;1.04896;2.71932;
9.00239;1.04654;2.70487;
9.0024;1.04398;2.68957;
9.00241;1.04131;2.67348;
9.00242;1.03853;2.65666;
9.00243;1.03565;2.63918;
9.00244;1.03269;2.62112;
9.00245;1.02965;2.60253;
9.00246;1.02656;2.5835;
9.00247;1.02341;2.5641;
9.00248;1.02022;2.54441;
9.00249;1.01701;2.5245;
9.0025;1.01379;2.50445;
9.00251;1.01057;2.48435;
9.00252;1.00737;2.46427;
9.00253;1.00419;2.44429;
9.00254;1.00105;2.42448;
9.00255;0.99796;2.40494;
9.00256;0.994935;2.38574;
9.00257;0.991985;2.36694;
9.00258;0.989123;2.34863;
9.00259;0.986358;2.33088;
9.0026;0.983704;2.31376;
9.00261;0.981169;2.29733;
9.00262;0.978764;2.28167;
9.00263;0.976498;2.26683;
9.00264;0.97438;2.25286;
9.00265;0.972419;2.23984;
9.00266;0.970622;2.2278;
9.00267;0.968997;2.21679;
9.00268;0.967549;2.20687;
9.00269;0.966284;2.19806;
9.0027;0.965208;2.1904;
9.00271;0.964324;2.18392;
9.00272;0.963636;2.17865;
9.00273;0.963147;2.17461;
9.00274;0.962859;2.17181;
9.00275;0.962772;2.17027;
9.00276;0.962887;2.16998;
9.00277;0.963204;2.17096;
9.00278;0.963722;2.17319;
9.00279;0.964437;2.17668;
9.0028;0.965348;2.1814;
9.00281;0.966451;2.18733;
9.00282;0.967742;2.19446;
9.00283;0.969215;2.20276;
9.00284;0.970866;2.21219;
9.00285;0.972686;2.22271;
9.00286;0.97467;2.23429;
9.00287;0.976809;2.24688;
9.00288;0.979095;2.26043;
9.00289;0.981519;2.27488;
9.0029;0.984071;2.29018;
9.00291;0.986742;2.30627;
9.00292;0.989521;2.32309;
9.00293;0.992396;2.34057;
9.00294;0.995357;2.35863;
9.00295;0.998392;2.37722;
9.00296;1.00149;2.39625;
9.00297;1.00464;2.41565;
9.00298;1.00782;2.43534;
9.00299;1.01103;2.45525;
9.003;1.01425;2.4753;
9.00301;1.01747;2.4954;
9.00302;1.02067;2.51548;
9.00303;1.02385;2.53547;
9.00304;1.027;2.55527;
9.00305;1.03009;2.57481;
9.00306;1.03311;2.59402;
9.00307;1.03606;2.61281;
9.00308;1.03893;2.63112;
9.00309;1.04169;2.64887;
9.0031;1.04435;2.66599;
9.00311;1.04689;2.68242;
9.00312;1.04929;2.69808;
9.00313;1.05156;2.71293;
9.00314;1.05368;2.72689;
9.00315;1.05564;2.73991;
9.00316;1.05744;2.75195;
9.00317;1.05907;2.76296;
9.00318;1.06052;2.77288;
9.00319;1.06178;2.78169;
9.0032;1.06286;2.78935;
9.00321;1.06375;2.79583;
9.00322;1.06444;2.8011;
9.00323;1.06493;2.80514;
9.00324;1.06521;2.80794;
9.00325;1.0653;2.80949;
9.00326;1.06519;2.80977;
9.00327;1.06487;2.80879;
9.00328;1.06435;2.80656;
9.00329;1.06363;2.80307;
9.0033;1.06272;2.79835;
9.00331;1.06162;2.79242;
9.00332;1.06033;2.78529;
9.00333;1.05885;2.77699;
9.00334;1.0572;2.76756;
9.00335;1.05538;2.75704;
9.00336;1.05339;2.74546;
9.00337;1.05125;2.73287;
9.00338;1.04896;2.71932;
9.00339;1.04654;2.70487;
9.0034;1.04398;2.68957;
9.00341;1.04131;2.67348;
9.00342;1.03853;2.65666;
9.00343;1.03565;2.63918;
9.00344;1.03269;2.62112;
9.00345;1.02965;2.60253;
9.00346;1.02655;2.5835;
9.00347;1.02341;2.5641;
9.00348;1.02022;2.54441;
9.00349;1.01701;2.5245;
9.0035;1.01379;2.50445;
9.00351;1.01057;2.48435;
9.00352;1.00737;2.46427;
9.00353;1.00419;2.44429;
9.00354;1.00105;2.42448;
9.00355;0.99796;2.40494;
9.00356;0.994934;2.38574;
9.00357;0.991984;2.36694;
9.00358;0.989122;2.34863;
9.00359;0.986358;2.33088;
9.0036;0.983703;2.31376;
9.00361;0.981168;2.29733;
9.00362;0.978763;2.28167;
9.00363;0.976497;2.26683;
9.00364;0.974379;2.25286;
9.00365;0.972418;2.23984;
9.00366;0.970622;2.2278;
9.00367;0.968996;2.21679;
9.00368;0.967548;2.20687;
9.00369;0.966284;2.19806;
9.0037;0.965207;2.1904;
9.00371;0.964324;2.18392;
9.00372;0.963636;2.17865;
9.00373;0.963147;2.17461;
9.00374;0.962858;2.17181;
9.00375;0.962771;2.17027;
9.00376;0.962887;2.16998;
9.00377;0.963204;2.17096;
9.00378;0.963721;2.17319;
9.00379;0.964436;2.17668;
9.0038;0.965348;2.1814;
9.00381;0.966451;2.18733;
9.00382;0.967741;2.19446;
9.00383;0.969215;2.20276;
9.00384;0.970865;2.21219;
9.00385;0.972685;2.22271;
9.00386;0.974669;2.23429;
9.00387;0.976808;2.24688;
9.00388;0.979094;2.26043;
9.00389;0.981518;2.27488;
9.0039;0.98407;2.29018;
9.00391;0.986741;2.30627;
9.00392;0.98952;2.32309;
9.00393;0.992396;2.34057;
9.00394;0.995357;2.35863;
9.00395;0.998392;2.37722;
9.00396;1.00149;2.39625;
9.00397;1.00464;2.41565;
9.00398;1.00782;2.43534;
9.00399;1.01103;2.45525;
9.004;1.01425;2.4753;
9.00401;1.01747;2.4954;
9.00402;1.02067;2.51548;
9.00403;1.02385;2.53547;
9.00404;1.027;2.55527;
9.00405;1.03009;2.57481;
9.00406;1.03311;2.59402;
9.00407;1.03606;2.61281;
9.00408;1.03893;2.63112;
9.00409;1.04169;2.64887;
9.0041;1.04435;2.66599;
9.00411;1.04689;2.68242;
9.00412;1.04929;2.69808;
9.00413;1.05156;2.71293;
9.00414;1.05368;2.72689;
9.00415;1.05564;2.73991;
9.00416;1.05744;2.75195;
9.00417;1.05907;2.76296;
9.00418;1.06052;2.77288;
9.00419;1.06178;2.78169;
9.0042;1.06286;2.78935;
9.00421;1.06375;2.79583;
9.00422;1.06443;2.8011;
9.00423;1.06492;2.80514;
9.00424;1.06521;2.80794;
9.00425;1.0653;2.80949;
9.00426;1.06518;2.80977;
9.00427;1.06487;2.80879;
9.00428;1.06435;2.80656;
9.00429;1.06363;2.80307;
9.0043;1.06272;2.79835;
9.00431;1.06162;2.79242;
9.00432;1.06032;2.78529;
9.00433;1.05885;2.77699;
9.00434;1.0572;2.76756;
9.00435;1.05538;2.75704;
9.00436;1.05339;2.74546;
9.00437;1.05125;2.73287;
9.00438;1.04896;2.71932;
9.00439;1.04654;2.70487;
9.0044;1.04398;2.68957;
9.00441;1.04131;2.67348;
9.00442;1.03853;2.65666;
9.00443;1.03565;2.63918;
9.00444;1.03269;2.62112;
9.00445;1.02965;2.60253;
9.00446;1.02655;2.5835;
9.00447;1.02341;2.5641;
9.00448;1.02022;2.54441;
9.00449;1.01701;2.5245;
9.0045;1.01379;2.50445;
9.00451;1.01057;2.48435;
9.00452;1.00737;2.46427;
9.00453;1.00419;2.44429;
9.00454;1.00105;2.42448;
9.00455;0.997959;2.40494;
9.00456;0.994934;2.38574;
9.00457;0.991984;2.36694;
9.00458;0.989121;2.34863;
9.00459;0.986357;2.33088;
9.0046;0.983702;2.31376;
9.00461;0.981167;2.29733;
9.00462;0.978762;2.28167;
9.00463;0.976496;2.26683;
9.00464;0.974379;2.25286;
9.00465;0.972418;2.23984;
9.00466;0.970621;2.2278;
9.00467;0.968995;2.21679;
9.00468;0.967547;2.20687;
9.00469;0.966283;2.19806;
9.0047;0.965207;2.1904;
9.00471;0.964323;2.18392;
9.00472;0.963635;2.17865;
9.00473;0.963146;2.17461;
9.00474;0.962858;2.17181;
9.00475;0.962771;2.17027;
9.00476;0.962886;2.16998;
9.00477;0.963203;2.17096;
9.00478;0.96372;2.17319;
9.00479;0.964436;2.17668;
9.0048;0.965347;2.1814;
9.00481;0.96645;2.18733;
9.00482;0.967741;2.19446;
9.00483;0.969214;2.20276;
9.00484;0.970864;2.21219;
9.00485;0.972685;2.22271;
9.00486;0.974668;2.23429;
9.00487;0.976807;2.24688;
9.00488;0.979093;2.26043;
9.00489;0.981517;2.27488;
9.0049;0.98407;2.29018;
9.00491;0.98674;2.30627;
9.00492;0.989519;2.32309;
9.00493;0.992395;2.34057;
9.00494;0.995356;2.35863;
9.00495;0.998391;2.37722;
9.00496;1.00149;2.39625;
9.00497;1.00463;2.41565;
9.00498;1.00782;2.43534;
9.00499;1.01103;2.45525;
9.005;1.01425;2.4753;
9.00501;1.01747;2.4954;
9.00502;1.02067;2.51548;
9.00503;1.02385;2.53547;
9.00504;1.02699;2.55527;
9.00505;1.03008;2.57481;
9.00506;1.03311;2.59402;
9.00507;1.03606;2.61281;
9.00508;1.03893;2.63112;
9.00509;1.04169;2.64887;
9.0051;1.04435;2.66599;
9.00511;1.04689;2.68242;
9.00512;1.04929;2.69808;
9.00513;1.05156;2.71293;
9.00514;1.05368;2.72689;
9.00515;1.05564;2.73991;
9.00516;1.05744;2.75195;
9.00517;1.05907;2.76296;
9.00518;1.06052;2.77288;
9.00519;1.06178;2.78169;
9.0052;1.06286;2.78935;
9.00521;1.06375;2.79583;
9.00522;1.06443;2.8011;
9.00523;1.06492;2.80514;
9.00524;1.06521;2.80794;
9.00525;1.0653;2.80949;
9.00526;1.06518;2.80977;
9.00527;1.06487;2.80879;
9.00528;1.06435;2.80656;
9.00529;1.06363;2.80307;
9.0053;1.06272;2.79835;
9.00531;1.06162;2.79242;
9.00532;1.06032;2.78529;
9.00533;1.05885;2.77699;
9.00534;1.0572;2.76756;
9.00535;1.05537;2.75704;
9.00536;1.05339;2.74546;
9.00537;1.05125;2.73287;
9.00538;1.04896;2.71932;
9.00539;1.04653;2.70487;
9.0054;1.04398;2.68957;
9.00541;1.04131;2.67348;
9.00542;1.03853;2.65666;
9.00543;1.03565;2.63918;
9.00544;1.03269;2.62112;
9.00545;1.02965;2.60253;
9.00546;1.02655;2.5835;
9.00547;1.02341;2.5641;
9.00548;1.02022;2.54441;
9.00549;1.01701;2.5245;
9.0055;1.01379;2.50445;
9.00551;1.01057;2.48435;
9.00552;1.00737;2.46427;
9.00553;1.00419;2.44429;
9.00554;1.00105;2.42448;
9.00555;0.997958;2.40494;
9.00556;0.994933;2.38574;
9.00557;0.991983;2.36694;
9.00558;0.98912;2.34863;
9.00559;0.986356;2.33088;
9.0056;0.983701;2.31376;
9.00561;0.981167;2.29733;
9.00562;0.978761;2.28167;
9.00563;0.976496;2.26683;
9.00564;0.974378;2.25286;
9.00565;0.972417;2.23984;
9.00566;0.97062;2.2278;
9.00567;0.968995;2.21679;
9.00568;0.967547;2.20687;
9.00569;0.966282;2.19806;
9.0057;0.965206;2.1904;
9.00571;0.964322;2.18392;
9.00572;0.963634;2.17865;
9.00573;0.963145;2.17461;
9.00574;0.962857;2.17181;
9.00575;0.96277;2.17027;
9.00576;0.962885;2.16998;
9.00577;0.963202;2.17096;
9.00578;0.963719;2.17319;
9.00579;0.964435;2.17668;
9.0058;0.965346;2.1814;
9.00581;0.966449;2.18733;
9.00582;0.96774;2.19446;
9.00583;0.969213;2.20276;
9.00584;0.970863;2.21219;
9.00585;0.972684;2.22271;
9.00586;0.974667;2.23429;
9.00587;0.976807;2.24688;
9.00588;0.979093;2.26043;
9.00589;0.981517;2.27488;
9.0059;0.984069;2.29018;
9.00591;0.98674;2.30627;
9.00592;0.989518;2.32309;
9.00593;0.992394;2.34057;
9.00594;0.995355;2.35863;
9.00595;0.99839;2.37722;
9.00596;1.00149;2.39625;
9.00597;1.00463;2.41565;
9.00598;1.00782;2.43534;
9.00599;1.01103;2.45525;
9.006;1.01425;2.4753;
9.00601;1.01747;2.4954;
9.00602;1.02067;2.51548;
9.00603;1.02385;2.53547;
9.00604;1.02699;2.55527;
9.00605;1.03008;2.57481;
9.00606;1.03311;2.59402;
9.00607;1.03606;2.61281;
9.00608;1.03893;2.63112;
9.00609;1.04169;2.64887;
9.0061;1.04435;2.66599;
9.00611;1.04688;2.68242;
9.00612;1.04929;2.69808;
9.00613;1.05156;2.71293;
9.00614;1.05368;2.72689;
9.00615;1.05564;2.73991;
9.00616;1.05744;2.75195;
9.00617;1.05907;2.76296;
9.00618;1.06052;2.77288;
9.00619;1.06178;2.78169;
9.0062;1.06286;2.78935;
9.00621;1.06374;2.79583;
9.00622;1.06443;2.8011;
9.00623;1.06492;2.80514;
9.00624;1.06521;2.80794;
9.00625;1.0653;2.80949;
9.00626;1.06518;2.80977;
9.00627;1.06487;2.80879;
9.00628;1.06435;2.80656;
9.00629;1.06363;2.80307;
9.0063;1.06272;2.79835;
9.00631;1.06162;2.79242;
9.00632;1.06032;2.78529;
9.00633;1.05885;2.77699;
9.00634;1.0572;2.76756;
9.00635;1.05537;2.75704;
9.00636;1.05339;2.74546;
9.00637;1.05125;2.73287;
9.00638;1.04896;2.71932;
9.00639;1.04653;2.70487;
9.0064;1.04398;2.68957;
9.00641;1.04131;2.67348;
9.00642;1.03853;2.65666;
9.00643;1.03565;2.63918;
9.00644;1.03269;2.62112;
9.00645;1.02965;2.60253;
9.00646;1.02655;2.5835;
9.00647;1.02341;2.5641;
9.00648;1.02022;2.54441;
9.00649;1.01701;2.5245;
9.0065;1.01379;2.50445;
9.00651;1.01057;2.48435;
9.00652;1.00737;2.46427;
9.00653;1.00419;2.44429;
9.00654;1.00105;2.42448;
9.00655;0.997957;2.40494;
9.00656;0.994932;2.38574;
9.00657;0.991982;2.36694;
9.00658;0.98912;2.34863;
9.00659;0.986356;2.33088;
9.0066;0.983701;2.31376;
9.00661;0.981166;2.29733;
9.00662;0.978761;2.28167;
9.00663;0.976495;2.26683;
9.00664;0.974377;2.25286;
9.00665;0.972416;2.23984;
9.00666;0.970619;2.2278;
9.00667;0.968994;2.21679;
9.00668;0.967546;2.20687;
9.00669;0.966281;2.19806;
9.0067;0.965205;2.1904;
9.00671;0.964321;2.18392;
9.00672;0.963634;2.17865;
9.00673;0.963145;2.17461;
9.00674;0.962856;2.17181;
9.00675;0.962769;2.17027;
9.00676;0.962885;2.16998;
9.00677;0.963201;2.17096;
9.00678;0.963719;2.17319;
9.00679;0.964434;2.17668;
9.0068;0.965345;2.1814;
9.00681;0.966449;2.18733;
9.00682;0.967739;2.19446;
9.00683;0.969213;2.20276;
9.00684;0.970863;2.21219;
9.00685;0.972683;2.22271;
9.00686;0.974667;2.23429;
9.00687;0.976806;2.24688;
9.00688;0.979092;2.26043;
9.00689;0.981516;2.27488;
9.0069;0.984068;2.29018;
9.00691;0.986739;2.30627;
9.00692;0.989518;2.32309;
9.00693;0.992393;2.34057;
9.00694;0.995355;2.35863;
9.00695;0.99839;2.37722;
9.00696;1.00149;2.39625;
9.00697;1.00463;2.41565;
9.00698;1.00782;2.43534;
9.00699;1.01103;2.45525;
9.007;1.01425;2.4753;
9.00701;1.01747;2.4954;
9.00702;1.02067;2.51548;
9.00703;1.02385;2.53547;
9.00704;1.02699;2.55527;
9.00705;1.03008;2.57481;
9.00706;1.03311;2.59402;
9.00707;1.03606;2.61281;
9.00708;1.03892;2.63112;
9.00709;1.04169;2.64887;
9.0071;1.04435;2.66599;
9.00711;1.04688;2.68242;
9.00712;1.04929;2.69808;
9.00713;1.05156;2.71293;
9.00714;1.05368;2.72689;
9.00715;1.05564;2.73991;
9.00716;1.05744;2.75195;
9.00717;1.05907;2.76296;
9.00718;1.06052;2.77288;
9.00719;1.06178;2.78169;
9.0072;1.06286;2.78935;
9.00721;1.06374;2.79583;
9.00722;1.06443;2.8011;
9.00723;1.06492;2.80514;
9.00724;1.06521;2.80794;
9.00725;1.0653;2.80949;
9.00726;1.06518;2.80977;
9.00727;1.06487;2.80879;
9.00728;1.06435;2.80656;
9.00729;1.06363;2.80307;
9.0073;1.06272;2.79835;
9.00731;1.06161;2.79242;
9.00732;1.06032;2.78529;
9.00733;1.05885;2.77699;
9.00734;1.0572;2.76756;
9.00735;1.05537;2.75704;
9.00736;1.05339;2.74546;
9.00737;1.05125;2.73287;
9.00738;1.04896;2.71932;
9.00739;1.04653;2.70487;
9.0074;1.04398;2.68957;
9.00741;1.04131;2.67348;
9.00742;1.03853;2.65666;
9.00743;1.03565;2.63918;
9.00744;1.03269;2.62112;
9.00745;1.02965;2.60253;
9.00746;1.02655;2.5835;
9.00747;1.0234;2.5641;
9.00748;1.02022;2.54441;
9.00749;1.01701;2.5245;
9.0075;1.01379;2.50445;
9.00751;1.01057;2.48435;
9.00752;1.00737;2.46427;
9.00753;1.00419;2.44429;
9.00754;1.00105;2.42448;
9.00755;0.997957;2.40494;
9.00756;0.994931;2.38574;
9.00757;0.991982;2.36694;
9.00758;0.989119;2.34863;
9.00759;0.986355;2.33088;
9.0076;0.9837;2.31376;
9.00761;0.981165;2.29733;
9.00762;0.97876;2.28167;
9.00763;0.976494;2.26683;
9.00764;0.974377;2.25286;
